2023-10-14 [Sat] 03:21:42 3810: [TransformToCfg] line=2 is i2c write : 0.0000184250,1,0x90,W,0x00 0x01 0x02
2023-10-14 [Sat] 03:21:42 3830: REG=0x90,0x0x0001,0x0
2023-10-14 [Sat] 03:21:42 3981: [TransformToCfg] line=3 is i2c write : 0.0020130050,2,0x90,W,0x00 0x51 0x02
2023-10-14 [Sat] 03:21:42 4070: REG=0x90,0x0x0051,0x0
2023-10-14 [Sat] 03:21:42 4210: [TransformToCfg] line=4 is i2c write : 0.2020198000,3,0x90,W,0x00 0x52 0x01
2023-10-14 [Sat] 03:21:42 4311: REG=0x90,0x0x0052,0x0
2023-10-14 [Sat] 03:21:42 4470: [TransformToCfg] line=5 is i2c write : 0.2049406850,4,0x90,W,0x03 0x20 0x2A
2023-10-14 [Sat] 03:21:42 4571: REG=0x90,0x0x0320,0x2
2023-10-14 [Sat] 03:21:42 4701: [TransformToCfg] line=6 is i2c write : 0.2065103650,5,0x90,W,0x02 0xC5 0x83
2023-10-14 [Sat] 03:21:42 4791: REG=0x90,0x0x02C5,0x8
2023-10-14 [Sat] 03:21:42 4931: [TransformToCfg] line=7 is i2c write : 0.2085105050,6,0x90,W,0x02 0xC6 0xA8
2023-10-14 [Sat] 03:21:42 5011: REG=0x90,0x0x02C6,0xA
2023-10-14 [Sat] 03:21:42 5151: [TransformToCfg] line=8 is i2c write : 0.2105110100,7,0x84,W,0x03 0x18 0x6D
2023-10-14 [Sat] 03:21:42 5241: REG=0x84,0x0x0318,0x6
2023-10-14 [Sat] 03:21:42 5401: [TransformToCfg] line=9 is i2c write : 0.2125103800,8,0x84,W,0x00 0x00 0xC8
2023-10-14 [Sat] 03:21:42 5471: REG=0x84,0x0x0000,0xC
2023-10-14 [Sat] 03:21:42 5611: [TransformToCfg] line=10 is i2c write : 0.2145222600,9,0x90,W,0x00 0x00 0xD8
2023-10-14 [Sat] 03:21:42 5711: REG=0x90,0x0x0000,0xD
2023-10-14 [Sat] 03:21:42 5989: [TransformToCfg] line=17 is i2c write : 9.7412313250,14,0x52,W,0x04 0x0B 0x00
2023-10-14 [Sat] 03:21:42 5999: REG=0x52,0x0x040B,0x0
2023-10-14 [Sat] 03:21:42 6129: [TransformToCfg] line=18 is i2c write : 9.7414249300,15,0x52,W,0x08 0xA0 0x04
2023-10-14 [Sat] 03:21:42 6229: REG=0x52,0x0x08A0,0x0
2023-10-14 [Sat] 03:21:42 6379: [TransformToCfg] line=19 is i2c write : 9.7418847400,16,0x52,W,0x00 0x10 0x11
2023-10-14 [Sat] 03:21:42 6469: REG=0x52,0x0x0010,0x1
2023-10-14 [Sat] 03:21:42 6599: [TransformToCfg] line=20 is i2c write : 9.7420784450,17,0x52,W,0x00 0x11 0x21
2023-10-14 [Sat] 03:21:42 6699: REG=0x52,0x0x0011,0x2
2023-10-14 [Sat] 03:21:42 6841: [TransformToCfg] line=21 is i2c write : 9.7422661750,18,0x52,W,0x00 0x8C 0x87
2023-10-14 [Sat] 03:21:42 6961: REG=0x52,0x0x008C,0x8
2023-10-14 [Sat] 03:21:42 7091: [TransformToCfg] line=22 is i2c write : 11.7319680700,19,0x52,W,0x00 0x06 0xFF
2023-10-14 [Sat] 03:21:42 7181: REG=0x52,0x0x0006,0xF
2023-10-14 [Sat] 03:21:42 7311: [TransformToCfg] line=23 is i2c write : 11.7321869700,20,0x52,W,0x04 0x0B 0x00
2023-10-14 [Sat] 03:21:42 7411: REG=0x52,0x0x040B,0x0
2023-10-14 [Sat] 03:21:42 7551: [TransformToCfg] line=24 is i2c write : 11.7323701050,21,0x52,W,0x06 0xC2 0x10
2023-10-14 [Sat] 03:21:42 7631: REG=0x52,0x0x06C2,0x1
2023-10-14 [Sat] 03:21:42 7771: [TransformToCfg] line=25 is i2c write : 11.7325606050,22,0x52,W,0x14 0xD1 0x03
2023-10-14 [Sat] 03:21:42 7861: REG=0x52,0x0x14D1,0x0
2023-10-14 [Sat] 03:21:42 7991: [TransformToCfg] line=26 is i2c write : 11.7327464150,23,0x52,W,0x15 0xD1 0x03
2023-10-14 [Sat] 03:21:42 8099: REG=0x52,0x0x15D1,0x0
2023-10-14 [Sat] 03:21:42 8239: [TransformToCfg] line=27 is i2c write : 11.7329291200,24,0x52,W,0x16 0xD1 0x03
2023-10-14 [Sat] 03:21:42 8319: REG=0x52,0x0x16D1,0x0
2023-10-14 [Sat] 03:21:42 8449: [TransformToCfg] line=28 is i2c write : 11.7331115200,25,0x52,W,0x17 0xD1 0x03
2023-10-14 [Sat] 03:21:42 8549: REG=0x52,0x0x17D1,0x0
2023-10-14 [Sat] 03:21:42 8699: [TransformToCfg] line=29 is i2c write : 11.7333028700,26,0x52,W,0x00 0x06 0xFF
2023-10-14 [Sat] 03:21:42 8789: REG=0x52,0x0x0006,0xF
2023-10-14 [Sat] 03:21:42 8939: [TransformToCfg] line=30 is i2c write : 11.7837481100,27,0x52,W,0x00 0xF0 0x62
2023-10-14 [Sat] 03:21:42 9036: REG=0x52,0x0x00F0,0x6
2023-10-14 [Sat] 03:21:42 9186: [TransformToCfg] line=31 is i2c write : 11.7839398800,28,0x52,W,0x00 0xF1 0xEA
2023-10-14 [Sat] 03:21:42 9276: REG=0x52,0x0x00F1,0xE
2023-10-14 [Sat] 03:21:42 9426: [TransformToCfg] line=32 is i2c write : 11.7841231350,29,0x52,W,0x00 0xF4 0x0F
2023-10-14 [Sat] 03:21:42 9546: REG=0x52,0x0x00F4,0x0
2023-10-14 [Sat] 03:21:42 9686: [TransformToCfg] line=33 is i2c write : 11.7843135200,30,0x52,W,0x01 0x06 0x0A
2023-10-14 [Sat] 03:21:42 9786: REG=0x52,0x0x0106,0x0
2023-10-14 [Sat] 03:21:42 9976: [TransformToCfg] line=35 is i2c write : 11.7846832150,32,0x52,W,0x01 0x2A 0x0A
2023-10-14 [Sat] 03:21:43 0186: REG=0x52,0x0x012A,0x0
2023-10-14 [Sat] 03:21:43 0336: [TransformToCfg] line=36 is i2c write : 11.7848701900,33,0x52,W,0x00 0xCF 0x42
2023-10-14 [Sat] 03:21:43 0436: REG=0x52,0x0x00CF,0x4
2023-10-14 [Sat] 03:21:43 0586: [TransformToCfg] line=37 is i2c write : 11.7850525850,34,0x52,W,0x09 0x0B 0x07
2023-10-14 [Sat] 03:21:43 0696: REG=0x52,0x0x090B,0x0
2023-10-14 [Sat] 03:21:43 0868: [TransformToCfg] line=38 is i2c write : 11.7852355250,35,0x52,W,0x09 0x2D 0x15
2023-10-14 [Sat] 03:21:43 0958: REG=0x52,0x0x092D,0x1
2023-10-14 [Sat] 03:21:43 1098: [TransformToCfg] line=39 is i2c write : 11.7854236800,36,0x52,W,0x09 0x0D 0x2D
2023-10-14 [Sat] 03:21:43 1198: REG=0x52,0x0x090D,0x2
2023-10-14 [Sat] 03:21:43 1328: [TransformToCfg] line=40 is i2c write : 11.7856377400,37,0x52,W,0x09 0x0E 0x2D
2023-10-14 [Sat] 03:21:43 1438: REG=0x52,0x0x090E,0x2
2023-10-14 [Sat] 03:21:43 1618: [TransformToCfg] line=43 is i2c write : 11.7879644750,39,0x52,W,0x09 0x0F 0x00
2023-10-14 [Sat] 03:21:43 1658: REG=0x52,0x0x090F,0x0
2023-10-14 [Sat] 03:21:43 1808: [TransformToCfg] line=44 is i2c write : 11.7881512400,40,0x52,W,0x09 0x10 0x00
2023-10-14 [Sat] 03:21:43 1898: REG=0x52,0x0x0910,0x0
2023-10-14 [Sat] 03:21:43 2088: [TransformToCfg] line=47 is i2c write : 11.7899582200,42,0x52,W,0x09 0x11 0x01
2023-10-14 [Sat] 03:21:43 2128: REG=0x52,0x0x0911,0x0
2023-10-14 [Sat] 03:21:43 2258: [TransformToCfg] line=48 is i2c write : 11.7901529850,43,0x52,W,0x09 0x12 0x01
2023-10-14 [Sat] 03:21:43 2358: REG=0x52,0x0x0912,0x0
2023-10-14 [Sat] 03:21:43 2558: [TransformToCfg] line=51 is i2c write : 11.7919622950,45,0x52,W,0x09 0x4B 0x07
2023-10-14 [Sat] 03:21:43 2618: REG=0x52,0x0x094B,0x0
2023-10-14 [Sat] 03:21:43 2768: [TransformToCfg] line=52 is i2c write : 11.7921473600,46,0x52,W,0x09 0x6D 0x15
2023-10-14 [Sat] 03:21:43 2878: REG=0x52,0x0x096D,0x1
2023-10-14 [Sat] 03:21:43 3038: [TransformToCfg] line=53 is i2c write : 11.7923300700,47,0x52,W,0x09 0x4D 0x2D
2023-10-14 [Sat] 03:21:43 3118: REG=0x52,0x0x094D,0x2
2023-10-14 [Sat] 03:21:43 3298: [TransformToCfg] line=54 is i2c write : 11.7925341150,48,0x52,W,0x09 0x4E 0x6D
2023-10-14 [Sat] 03:21:43 3398: REG=0x52,0x0x094E,0x6
2023-10-14 [Sat] 03:21:43 3597: [TransformToCfg] line=57 is i2c write : 11.7951505550,50,0x52,W,0x09 0x50 0x40
2023-10-14 [Sat] 03:21:43 3687: REG=0x52,0x0x0950,0x4
2023-10-14 [Sat] 03:21:43 3887: [TransformToCfg] line=60 is i2c write : 11.7969534700,52,0x52,W,0x09 0x51 0x01
2023-10-14 [Sat] 03:21:43 3937: REG=0x52,0x0x0951,0x0
2023-10-14 [Sat] 03:21:43 4097: [TransformToCfg] line=61 is i2c write : 11.7971444000,53,0x52,W,0x09 0x52 0x41
2023-10-14 [Sat] 03:21:43 4187: REG=0x52,0x0x0952,0x4
2023-10-14 [Sat] 03:21:43 4349: [TransformToCfg] line=62 is i2c write : 11.7987339900,54,0x52,W,0x09 0x52 0xA9 0xFF
2023-10-14 [Sat] 03:21:43 4469: REG=0x52,0x0x0952,0xA
2023-10-14 [Sat] 03:21:43 4599: REG=0x52,0x0952,90x
2023-10-14 [Sat] 03:26:15 8192: [TransformToCfg] line=2 is i2c write : 0.0000184250,1,0x90,W,0x00 0x01 0x02
2023-10-14 [Sat] 03:26:15 8212: REG=0x90,0x0x0001,0x02
2023-10-14 [Sat] 03:26:15 8322: offsetAddr=0001	dataStr=2
2023-10-14 [Sat] 03:26:15 8512: [TransformToCfg] line=3 is i2c write : 0.0020130050,2,0x90,W,0x00 0x51 0x02
2023-10-14 [Sat] 03:26:15 8592: REG=0x90,0x0x0051,0x02
2023-10-14 [Sat] 03:26:15 8712: offsetAddr=0051	dataStr=2
2023-10-14 [Sat] 03:26:15 8852: [TransformToCfg] line=4 is i2c write : 0.2020198000,3,0x90,W,0x00 0x52 0x01
2023-10-14 [Sat] 03:26:15 8922: REG=0x90,0x0x0052,0x01
2023-10-14 [Sat] 03:26:15 9042: offsetAddr=0052	dataStr=1
2023-10-14 [Sat] 03:26:15 9222: [TransformToCfg] line=5 is i2c write : 0.2049406850,4,0x90,W,0x03 0x20 0x2A
2023-10-14 [Sat] 03:26:15 9322: REG=0x90,0x0x0320,0x2A
2023-10-14 [Sat] 03:26:15 9422: offsetAddr=0320	dataStr=A
2023-10-14 [Sat] 03:26:15 9612: [TransformToCfg] line=6 is i2c write : 0.2065103650,5,0x90,W,0x02 0xC5 0x83
2023-10-14 [Sat] 03:26:15 9702: REG=0x90,0x0x02C5,0x83
2023-10-14 [Sat] 03:26:15 9842: offsetAddr=02C5	dataStr=3
2023-10-14 [Sat] 03:26:16 0002: [TransformToCfg] line=7 is i2c write : 0.2085105050,6,0x90,W,0x02 0xC6 0xA8
2023-10-14 [Sat] 03:26:16 0072: REG=0x90,0x0x02C6,0xA8
2023-10-14 [Sat] 03:26:16 0202: offsetAddr=02C6	dataStr=8
2023-10-14 [Sat] 03:26:16 0362: [TransformToCfg] line=8 is i2c write : 0.2105110100,7,0x84,W,0x03 0x18 0x6D
2023-10-14 [Sat] 03:26:16 0462: REG=0x84,0x0x0318,0x6D
2023-10-14 [Sat] 03:26:16 0612: offsetAddr=0318	dataStr=D
2023-10-14 [Sat] 03:26:16 0792: [TransformToCfg] line=9 is i2c write : 0.2125103800,8,0x84,W,0x00 0x00 0xC8
2023-10-14 [Sat] 03:26:16 0872: REG=0x84,0x0x0000,0xC8
2023-10-14 [Sat] 03:26:16 0972: offsetAddr=0000	dataStr=8
2023-10-14 [Sat] 03:26:16 1162: [TransformToCfg] line=10 is i2c write : 0.2145222600,9,0x90,W,0x00 0x00 0xD8
2023-10-14 [Sat] 03:26:16 1242: REG=0x90,0x0x0000,0xD8
2023-10-14 [Sat] 03:26:16 1362: offsetAddr=0000	dataStr=8
2023-10-14 [Sat] 03:26:16 1632: [TransformToCfg] line=17 is i2c write : 9.7412313250,14,0x52,W,0x04 0x0B 0x00
2023-10-14 [Sat] 03:26:16 1642: REG=0x52,0x0x040B,0x00
2023-10-14 [Sat] 03:26:16 1752: offsetAddr=040B	dataStr=0
2023-10-14 [Sat] 03:26:16 1902: [TransformToCfg] line=18 is i2c write : 9.7414249300,15,0x52,W,0x08 0xA0 0x04
2023-10-14 [Sat] 03:26:16 2002: REG=0x52,0x0x08A0,0x04
2023-10-14 [Sat] 03:26:16 2112: offsetAddr=08A0	dataStr=4
2023-10-14 [Sat] 03:26:16 2252: [TransformToCfg] line=19 is i2c write : 9.7418847400,16,0x52,W,0x00 0x10 0x11
2023-10-14 [Sat] 03:26:16 2372: REG=0x52,0x0x0010,0x11
2023-10-14 [Sat] 03:26:16 2482: offsetAddr=0010	dataStr=1
2023-10-14 [Sat] 03:26:16 2661: [TransformToCfg] line=20 is i2c write : 9.7420784450,17,0x52,W,0x00 0x11 0x21
2023-10-14 [Sat] 03:26:16 2771: REG=0x52,0x0x0011,0x21
2023-10-14 [Sat] 03:26:16 2911: offsetAddr=0011	dataStr=1
2023-10-14 [Sat] 03:26:16 3091: [TransformToCfg] line=21 is i2c write : 9.7422661750,18,0x52,W,0x00 0x8C 0x87
2023-10-14 [Sat] 03:26:16 3171: REG=0x52,0x0x008C,0x87
2023-10-14 [Sat] 03:26:16 3311: offsetAddr=008C	dataStr=7
2023-10-14 [Sat] 03:26:16 3471: [TransformToCfg] line=22 is i2c write : 11.7319680700,19,0x52,W,0x00 0x06 0xFF
2023-10-14 [Sat] 03:26:16 3571: REG=0x52,0x0x0006,0xFF
2023-10-14 [Sat] 03:26:16 3711: offsetAddr=0006	dataStr=F
2023-10-14 [Sat] 03:26:16 3851: [TransformToCfg] line=23 is i2c write : 11.7321869700,20,0x52,W,0x04 0x0B 0x00
2023-10-14 [Sat] 03:26:16 3941: REG=0x52,0x0x040B,0x00
2023-10-14 [Sat] 03:26:16 4091: offsetAddr=040B	dataStr=0
2023-10-14 [Sat] 03:26:16 4251: [TransformToCfg] line=24 is i2c write : 11.7323701050,21,0x52,W,0x06 0xC2 0x10
2023-10-14 [Sat] 03:26:16 4341: REG=0x52,0x0x06C2,0x10
2023-10-14 [Sat] 03:26:16 4471: offsetAddr=06C2	dataStr=0
2023-10-14 [Sat] 03:26:16 4631: [TransformToCfg] line=25 is i2c write : 11.7325606050,22,0x52,W,0x14 0xD1 0x03
2023-10-14 [Sat] 03:26:16 4759: REG=0x52,0x0x14D1,0x03
2023-10-14 [Sat] 03:26:16 4889: offsetAddr=14D1	dataStr=3
2023-10-14 [Sat] 03:26:16 5029: [TransformToCfg] line=26 is i2c write : 11.7327464150,23,0x52,W,0x15 0xD1 0x03
2023-10-14 [Sat] 03:26:16 5109: REG=0x52,0x0x15D1,0x03
2023-10-14 [Sat] 03:26:16 5229: offsetAddr=15D1	dataStr=3
2023-10-14 [Sat] 03:26:16 5389: [TransformToCfg] line=27 is i2c write : 11.7329291200,24,0x52,W,0x16 0xD1 0x03
2023-10-14 [Sat] 03:26:16 5479: REG=0x52,0x0x16D1,0x03
2023-10-14 [Sat] 03:26:16 5599: offsetAddr=16D1	dataStr=3
2023-10-14 [Sat] 03:26:16 5759: [TransformToCfg] line=28 is i2c write : 11.7331115200,25,0x52,W,0x17 0xD1 0x03
2023-10-14 [Sat] 03:26:16 5849: REG=0x52,0x0x17D1,0x03
2023-10-14 [Sat] 03:26:16 5979: offsetAddr=17D1	dataStr=3
2023-10-14 [Sat] 03:26:16 6129: [TransformToCfg] line=29 is i2c write : 11.7333028700,26,0x52,W,0x00 0x06 0xFF
2023-10-14 [Sat] 03:26:16 6209: REG=0x52,0x0x0006,0xFF
2023-10-14 [Sat] 03:26:16 6349: offsetAddr=0006	dataStr=F
2023-10-14 [Sat] 03:26:16 6489: [TransformToCfg] line=30 is i2c write : 11.7837481100,27,0x52,W,0x00 0xF0 0x62
2023-10-14 [Sat] 03:26:16 6599: REG=0x52,0x0x00F0,0x62
2023-10-14 [Sat] 03:26:16 6729: offsetAddr=00F0	dataStr=2
2023-10-14 [Sat] 03:26:16 6909: [TransformToCfg] line=31 is i2c write : 11.7839398800,28,0x52,W,0x00 0xF1 0xEA
2023-10-14 [Sat] 03:26:16 6989: REG=0x52,0x0x00F1,0xEA
2023-10-14 [Sat] 03:26:16 7099: offsetAddr=00F1	dataStr=A
2023-10-14 [Sat] 03:26:16 7259: [TransformToCfg] line=32 is i2c write : 11.7841231350,29,0x52,W,0x00 0xF4 0x0F
2023-10-14 [Sat] 03:26:16 7369: REG=0x52,0x0x00F4,0x0F
2023-10-14 [Sat] 03:26:16 7479: offsetAddr=00F4	dataStr=F
2023-10-14 [Sat] 03:26:16 7639: [TransformToCfg] line=33 is i2c write : 11.7843135200,30,0x52,W,0x01 0x06 0x0A
2023-10-14 [Sat] 03:26:16 7739: REG=0x52,0x0x0106,0x0A
2023-10-14 [Sat] 03:26:16 7879: offsetAddr=0106	dataStr=A
2023-10-14 [Sat] 03:26:16 8069: [TransformToCfg] line=35 is i2c write : 11.7846832150,32,0x52,W,0x01 0x2A 0x0A
2023-10-14 [Sat] 03:26:16 8150: REG=0x52,0x0x012A,0x0A
2023-10-14 [Sat] 03:26:16 8289: offsetAddr=012A	dataStr=A
2023-10-14 [Sat] 03:26:16 8430: [TransformToCfg] line=36 is i2c write : 11.7848701900,33,0x52,W,0x00 0xCF 0x42
2023-10-14 [Sat] 03:26:16 8560: REG=0x52,0x0x00CF,0x42
2023-10-14 [Sat] 03:26:16 8710: offsetAddr=00CF	dataStr=2
2023-10-14 [Sat] 03:26:16 8870: [TransformToCfg] line=37 is i2c write : 11.7850525850,34,0x52,W,0x09 0x0B 0x07
2023-10-14 [Sat] 03:26:16 8980: REG=0x52,0x0x090B,0x07
2023-10-14 [Sat] 03:26:16 9120: offsetAddr=090B	dataStr=7
2023-10-14 [Sat] 03:26:16 9280: [TransformToCfg] line=38 is i2c write : 11.7852355250,35,0x52,W,0x09 0x2D 0x15
2023-10-14 [Sat] 03:26:16 9360: REG=0x52,0x0x092D,0x15
2023-10-14 [Sat] 03:26:16 9480: offsetAddr=092D	dataStr=5
2023-10-14 [Sat] 03:26:16 9640: [TransformToCfg] line=39 is i2c write : 11.7854236800,36,0x52,W,0x09 0x0D 0x2D
2023-10-14 [Sat] 03:26:16 9760: REG=0x52,0x0x090D,0x2D
2023-10-14 [Sat] 03:26:16 9880: offsetAddr=090D	dataStr=D
2023-10-14 [Sat] 03:26:17 0070: [TransformToCfg] line=40 is i2c write : 11.7856377400,37,0x52,W,0x09 0x0E 0x2D
2023-10-14 [Sat] 03:26:17 0150: REG=0x52,0x0x090E,0x2D
2023-10-14 [Sat] 03:26:17 0260: offsetAddr=090E	dataStr=D
2023-10-14 [Sat] 03:26:17 0420: [TransformToCfg] line=43 is i2c write : 11.7879644750,39,0x52,W,0x09 0x0F 0x00
2023-10-14 [Sat] 03:26:17 0510: REG=0x52,0x0x090F,0x00
2023-10-14 [Sat] 03:26:17 0660: offsetAddr=090F	dataStr=0
2023-10-14 [Sat] 03:26:17 0820: [TransformToCfg] line=44 is i2c write : 11.7881512400,40,0x52,W,0x09 0x10 0x00
2023-10-14 [Sat] 03:26:17 0910: REG=0x52,0x0x0910,0x00
2023-10-14 [Sat] 03:26:17 1030: offsetAddr=0910	dataStr=0
2023-10-14 [Sat] 03:26:17 1230: [TransformToCfg] line=47 is i2c write : 11.7899582200,42,0x52,W,0x09 0x11 0x01
2023-10-14 [Sat] 03:26:17 1270: REG=0x52,0x0x0911,0x01
2023-10-14 [Sat] 03:26:17 1420: offsetAddr=0911	dataStr=1
2023-10-14 [Sat] 03:26:17 1580: [TransformToCfg] line=48 is i2c write : 11.7901529850,43,0x52,W,0x09 0x12 0x01
2023-10-14 [Sat] 03:26:17 1660: REG=0x52,0x0x0912,0x01
2023-10-14 [Sat] 03:26:17 1770: offsetAddr=0912	dataStr=1
2023-10-14 [Sat] 03:26:17 1990: [TransformToCfg] line=51 is i2c write : 11.7919622950,45,0x52,W,0x09 0x4B 0x07
2023-10-14 [Sat] 03:26:17 2040: REG=0x52,0x0x094B,0x07
2023-10-14 [Sat] 03:26:17 2140: offsetAddr=094B	dataStr=7
2023-10-14 [Sat] 03:26:17 2280: [TransformToCfg] line=52 is i2c write : 11.7921473600,46,0x52,W,0x09 0x6D 0x15
2023-10-14 [Sat] 03:26:17 2390: REG=0x52,0x0x096D,0x15
2023-10-14 [Sat] 03:26:17 2530: offsetAddr=096D	dataStr=5
2023-10-14 [Sat] 03:26:17 2690: [TransformToCfg] line=53 is i2c write : 11.7923300700,47,0x52,W,0x09 0x4D 0x2D
2023-10-14 [Sat] 03:26:17 2780: REG=0x52,0x0x094D,0x2D
2023-10-14 [Sat] 03:26:17 2890: offsetAddr=094D	dataStr=D
2023-10-14 [Sat] 03:26:17 3040: [TransformToCfg] line=54 is i2c write : 11.7925341150,48,0x52,W,0x09 0x4E 0x6D
2023-10-14 [Sat] 03:26:17 3140: REG=0x52,0x0x094E,0x6D
2023-10-14 [Sat] 03:26:17 3280: offsetAddr=094E	dataStr=D
2023-10-14 [Sat] 03:26:17 3490: [TransformToCfg] line=57 is i2c write : 11.7951505550,50,0x52,W,0x09 0x50 0x40
2023-10-14 [Sat] 03:26:17 3600: REG=0x52,0x0x0950,0x40
2023-10-14 [Sat] 03:26:17 3760: offsetAddr=0950	dataStr=0
2023-10-14 [Sat] 03:26:17 3980: [TransformToCfg] line=60 is i2c write : 11.7969534700,52,0x52,W,0x09 0x51 0x01
2023-10-14 [Sat] 03:26:17 4060: REG=0x52,0x0x0951,0x01
2023-10-14 [Sat] 03:26:17 4190: offsetAddr=0951	dataStr=1
2023-10-14 [Sat] 03:26:17 4350: [TransformToCfg] line=61 is i2c write : 11.7971444000,53,0x52,W,0x09 0x52 0x41
2023-10-14 [Sat] 03:26:17 4460: REG=0x52,0x0x0952,0x41
2023-10-14 [Sat] 03:26:17 4610: offsetAddr=0952	dataStr=1
2023-10-14 [Sat] 03:26:17 4770: [TransformToCfg] line=62 is i2c write : 11.7987339900,54,0x52,W,0x09 0x52 0xA9 0xFF
2023-10-14 [Sat] 03:26:17 4910: REG=0x52,0x0x0952,0xA9
2023-10-14 [Sat] 03:26:17 5100: offsetAddr=0952	dataStr=90xFF
2023-10-14 [Sat] 03:26:17 5250: REG=0x52,0x0952,90xF
2023-10-14 [Sat] 03:26:17 5420: offsetAddr=0953	dataStr=FF
2023-10-14 [Sat] 03:27:25 6483: [TransformToCfg] line=2 is i2c write : 0.0000184250,1,0x90,W,0x00 0x01 0x02
2023-10-14 [Sat] 03:27:25 6493: REG=0x90,0x0x0001,0x02
2023-10-14 [Sat] 03:27:25 6643: offsetAddr=0001	dataStr=
2023-10-14 [Sat] 03:27:25 6813: [TransformToCfg] line=3 is i2c write : 0.0020130050,2,0x90,W,0x00 0x51 0x02
2023-10-14 [Sat] 03:27:25 6883: REG=0x90,0x0x0051,0x02
2023-10-14 [Sat] 03:27:25 7003: offsetAddr=0051	dataStr=
2023-10-14 [Sat] 03:27:25 7183: [TransformToCfg] line=4 is i2c write : 0.2020198000,3,0x90,W,0x00 0x52 0x01
2023-10-14 [Sat] 03:27:25 7283: REG=0x90,0x0x0052,0x01
2023-10-14 [Sat] 03:27:25 7433: offsetAddr=0052	dataStr=
2023-10-14 [Sat] 03:27:25 7593: [TransformToCfg] line=5 is i2c write : 0.2049406850,4,0x90,W,0x03 0x20 0x2A
2023-10-14 [Sat] 03:27:25 7703: REG=0x90,0x0x0320,0x2A
2023-10-14 [Sat] 03:27:25 7863: offsetAddr=0320	dataStr=
2023-10-14 [Sat] 03:27:25 8013: [TransformToCfg] line=6 is i2c write : 0.2065103650,5,0x90,W,0x02 0xC5 0x83
2023-10-14 [Sat] 03:27:25 8133: REG=0x90,0x0x02C5,0x83
2023-10-14 [Sat] 03:27:25 8283: offsetAddr=02C5	dataStr=
2023-10-14 [Sat] 03:27:25 8443: [TransformToCfg] line=7 is i2c write : 0.2085105050,6,0x90,W,0x02 0xC6 0xA8
2023-10-14 [Sat] 03:27:25 8533: REG=0x90,0x0x02C6,0xA8
2023-10-14 [Sat] 03:27:25 8653: offsetAddr=02C6	dataStr=
2023-10-14 [Sat] 03:27:25 8783: [TransformToCfg] line=8 is i2c write : 0.2105110100,7,0x84,W,0x03 0x18 0x6D
2023-10-14 [Sat] 03:27:25 8873: REG=0x84,0x0x0318,0x6D
2023-10-14 [Sat] 03:27:25 9013: offsetAddr=0318	dataStr=
2023-10-14 [Sat] 03:27:25 9173: [TransformToCfg] line=9 is i2c write : 0.2125103800,8,0x84,W,0x00 0x00 0xC8
2023-10-14 [Sat] 03:27:25 9283: REG=0x84,0x0x0000,0xC8
2023-10-14 [Sat] 03:27:25 9433: offsetAddr=0000	dataStr=
2023-10-14 [Sat] 03:27:25 9573: [TransformToCfg] line=10 is i2c write : 0.2145222600,9,0x90,W,0x00 0x00 0xD8
2023-10-14 [Sat] 03:27:25 9663: REG=0x90,0x0x0000,0xD8
2023-10-14 [Sat] 03:27:25 9809: offsetAddr=0000	dataStr=
2023-10-14 [Sat] 03:27:26 0089: [TransformToCfg] line=17 is i2c write : 9.7412313250,14,0x52,W,0x04 0x0B 0x00
2023-10-14 [Sat] 03:27:26 0099: REG=0x52,0x0x040B,0x00
2023-10-14 [Sat] 03:27:26 0239: offsetAddr=040B	dataStr=
2023-10-14 [Sat] 03:27:26 0389: [TransformToCfg] line=18 is i2c write : 9.7414249300,15,0x52,W,0x08 0xA0 0x04
2023-10-14 [Sat] 03:27:26 0489: REG=0x52,0x0x08A0,0x04
2023-10-14 [Sat] 03:27:26 0629: offsetAddr=08A0	dataStr=
2023-10-14 [Sat] 03:27:26 0769: [TransformToCfg] line=19 is i2c write : 9.7418847400,16,0x52,W,0x00 0x10 0x11
2023-10-14 [Sat] 03:27:26 0879: REG=0x52,0x0x0010,0x11
2023-10-14 [Sat] 03:27:26 1019: offsetAddr=0010	dataStr=
2023-10-14 [Sat] 03:27:26 1169: [TransformToCfg] line=20 is i2c write : 9.7420784450,17,0x52,W,0x00 0x11 0x21
2023-10-14 [Sat] 03:27:26 1269: REG=0x52,0x0x0011,0x21
2023-10-14 [Sat] 03:27:26 1399: offsetAddr=0011	dataStr=
2023-10-14 [Sat] 03:27:26 1549: [TransformToCfg] line=21 is i2c write : 9.7422661750,18,0x52,W,0x00 0x8C 0x87
2023-10-14 [Sat] 03:27:26 1629: REG=0x52,0x0x008C,0x87
2023-10-14 [Sat] 03:27:26 1739: offsetAddr=008C	dataStr=
2023-10-14 [Sat] 03:27:26 1913: [TransformToCfg] line=22 is i2c write : 11.7319680700,19,0x52,W,0x00 0x06 0xFF
2023-10-14 [Sat] 03:27:26 1988: REG=0x52,0x0x0006,0xFF
2023-10-14 [Sat] 03:27:26 2128: offsetAddr=0006	dataStr=
2023-10-14 [Sat] 03:27:26 2308: [TransformToCfg] line=23 is i2c write : 11.7321869700,20,0x52,W,0x04 0x0B 0x00
2023-10-14 [Sat] 03:27:26 2388: REG=0x52,0x0x040B,0x00
2023-10-14 [Sat] 03:27:26 2538: offsetAddr=040B	dataStr=
2023-10-14 [Sat] 03:27:26 2692: [TransformToCfg] line=24 is i2c write : 11.7323701050,21,0x52,W,0x06 0xC2 0x10
2023-10-14 [Sat] 03:27:26 2792: REG=0x52,0x0x06C2,0x10
2023-10-14 [Sat] 03:27:26 2932: offsetAddr=06C2	dataStr=
2023-10-14 [Sat] 03:27:26 3132: [TransformToCfg] line=25 is i2c write : 11.7325606050,22,0x52,W,0x14 0xD1 0x03
2023-10-14 [Sat] 03:27:26 3212: REG=0x52,0x0x14D1,0x03
2023-10-14 [Sat] 03:27:26 3352: offsetAddr=14D1	dataStr=
2023-10-14 [Sat] 03:27:26 3522: [TransformToCfg] line=26 is i2c write : 11.7327464150,23,0x52,W,0x15 0xD1 0x03
2023-10-14 [Sat] 03:27:26 3632: REG=0x52,0x0x15D1,0x03
2023-10-14 [Sat] 03:27:26 3802: offsetAddr=15D1	dataStr=
2023-10-14 [Sat] 03:27:26 3962: [TransformToCfg] line=27 is i2c write : 11.7329291200,24,0x52,W,0x16 0xD1 0x03
2023-10-14 [Sat] 03:27:26 4052: REG=0x52,0x0x16D1,0x03
2023-10-14 [Sat] 03:27:26 4192: offsetAddr=16D1	dataStr=
2023-10-14 [Sat] 03:27:26 4322: [TransformToCfg] line=28 is i2c write : 11.7331115200,25,0x52,W,0x17 0xD1 0x03
2023-10-14 [Sat] 03:27:26 4442: REG=0x52,0x0x17D1,0x03
2023-10-14 [Sat] 03:27:26 4582: offsetAddr=17D1	dataStr=
2023-10-14 [Sat] 03:27:26 4739: [TransformToCfg] line=29 is i2c write : 11.7333028700,26,0x52,W,0x00 0x06 0xFF
2023-10-14 [Sat] 03:27:26 4851: REG=0x52,0x0x0006,0xFF
2023-10-14 [Sat] 03:27:26 4991: offsetAddr=0006	dataStr=
2023-10-14 [Sat] 03:27:26 5151: [TransformToCfg] line=30 is i2c write : 11.7837481100,27,0x52,W,0x00 0xF0 0x62
2023-10-14 [Sat] 03:27:26 5251: REG=0x52,0x0x00F0,0x62
2023-10-14 [Sat] 03:27:26 5381: offsetAddr=00F0	dataStr=
2023-10-14 [Sat] 03:27:26 5561: [TransformToCfg] line=31 is i2c write : 11.7839398800,28,0x52,W,0x00 0xF1 0xEA
2023-10-14 [Sat] 03:27:26 5651: REG=0x52,0x0x00F1,0xEA
2023-10-14 [Sat] 03:27:26 5781: offsetAddr=00F1	dataStr=
2023-10-14 [Sat] 03:27:26 5911: [TransformToCfg] line=32 is i2c write : 11.7841231350,29,0x52,W,0x00 0xF4 0x0F
2023-10-14 [Sat] 03:27:26 6031: REG=0x52,0x0x00F4,0x0F
2023-10-14 [Sat] 03:27:26 6171: offsetAddr=00F4	dataStr=
2023-10-14 [Sat] 03:27:26 6311: [TransformToCfg] line=33 is i2c write : 11.7843135200,30,0x52,W,0x01 0x06 0x0A
2023-10-14 [Sat] 03:27:26 6431: REG=0x52,0x0x0106,0x0A
2023-10-14 [Sat] 03:27:26 6581: offsetAddr=0106	dataStr=
2023-10-14 [Sat] 03:27:26 6751: [TransformToCfg] line=35 is i2c write : 11.7846832150,32,0x52,W,0x01 0x2A 0x0A
2023-10-14 [Sat] 03:27:26 6831: REG=0x52,0x0x012A,0x0A
2023-10-14 [Sat] 03:27:26 7001: offsetAddr=012A	dataStr=
2023-10-14 [Sat] 03:27:26 7181: [TransformToCfg] line=36 is i2c write : 11.7848701900,33,0x52,W,0x00 0xCF 0x42
2023-10-14 [Sat] 03:27:26 7261: REG=0x52,0x0x00CF,0x42
2023-10-14 [Sat] 03:27:26 7421: offsetAddr=00CF	dataStr=
2023-10-14 [Sat] 03:27:26 7571: [TransformToCfg] line=37 is i2c write : 11.7850525850,34,0x52,W,0x09 0x0B 0x07
2023-10-14 [Sat] 03:27:26 7701: REG=0x52,0x0x090B,0x07
2023-10-14 [Sat] 03:27:26 7851: offsetAddr=090B	dataStr=
2023-10-14 [Sat] 03:27:26 8021: [TransformToCfg] line=38 is i2c write : 11.7852355250,35,0x52,W,0x09 0x2D 0x15
2023-10-14 [Sat] 03:27:26 8101: REG=0x52,0x0x092D,0x15
2023-10-14 [Sat] 03:27:26 8231: offsetAddr=092D	dataStr=
2023-10-14 [Sat] 03:27:26 8391: [TransformToCfg] line=39 is i2c write : 11.7854236800,36,0x52,W,0x09 0x0D 0x2D
2023-10-14 [Sat] 03:27:26 8501: REG=0x52,0x0x090D,0x2D
2023-10-14 [Sat] 03:27:26 8641: offsetAddr=090D	dataStr=
2023-10-14 [Sat] 03:27:26 8811: [TransformToCfg] line=40 is i2c write : 11.7856377400,37,0x52,W,0x09 0x0E 0x2D
2023-10-14 [Sat] 03:27:26 8911: REG=0x52,0x0x090E,0x2D
2023-10-14 [Sat] 03:27:26 9051: offsetAddr=090E	dataStr=
2023-10-14 [Sat] 03:27:26 9251: [TransformToCfg] line=43 is i2c write : 11.7879644750,39,0x52,W,0x09 0x0F 0x00
2023-10-14 [Sat] 03:27:26 9291: REG=0x52,0x0x090F,0x00
2023-10-14 [Sat] 03:27:26 9441: offsetAddr=090F	dataStr=
2023-10-14 [Sat] 03:27:26 9601: [TransformToCfg] line=44 is i2c write : 11.7881512400,40,0x52,W,0x09 0x10 0x00
2023-10-14 [Sat] 03:27:26 9691: REG=0x52,0x0x0910,0x00
2023-10-14 [Sat] 03:27:26 9811: offsetAddr=0910	dataStr=
2023-10-14 [Sat] 03:27:27 0000: [TransformToCfg] line=47 is i2c write : 11.7899582200,42,0x52,W,0x09 0x11 0x01
2023-10-14 [Sat] 03:27:27 0090: REG=0x52,0x0x0911,0x01
2023-10-14 [Sat] 03:27:27 0240: offsetAddr=0911	dataStr=
2023-10-14 [Sat] 03:27:27 0440: [TransformToCfg] line=48 is i2c write : 11.7901529850,43,0x52,W,0x09 0x12 0x01
2023-10-14 [Sat] 03:27:27 0530: REG=0x52,0x0x0912,0x01
2023-10-14 [Sat] 03:27:27 0670: offsetAddr=0912	dataStr=
2023-10-14 [Sat] 03:27:27 0870: [TransformToCfg] line=51 is i2c write : 11.7919622950,45,0x52,W,0x09 0x4B 0x07
2023-10-14 [Sat] 03:27:27 0930: REG=0x52,0x0x094B,0x07
2023-10-14 [Sat] 03:27:27 1040: offsetAddr=094B	dataStr=
2023-10-14 [Sat] 03:27:27 1220: [TransformToCfg] line=52 is i2c write : 11.7921473600,46,0x52,W,0x09 0x6D 0x15
2023-10-14 [Sat] 03:27:27 1320: REG=0x52,0x0x096D,0x15
2023-10-14 [Sat] 03:27:27 1450: offsetAddr=096D	dataStr=
2023-10-14 [Sat] 03:27:27 1600: [TransformToCfg] line=53 is i2c write : 11.7923300700,47,0x52,W,0x09 0x4D 0x2D
2023-10-14 [Sat] 03:27:27 1690: REG=0x52,0x0x094D,0x2D
2023-10-14 [Sat] 03:27:27 1820: offsetAddr=094D	dataStr=
2023-10-14 [Sat] 03:27:27 1970: [TransformToCfg] line=54 is i2c write : 11.7925341150,48,0x52,W,0x09 0x4E 0x6D
2023-10-14 [Sat] 03:27:27 2068: REG=0x52,0x0x094E,0x6D
2023-10-14 [Sat] 03:27:27 2199: offsetAddr=094E	dataStr=
2023-10-14 [Sat] 03:27:27 2379: [TransformToCfg] line=57 is i2c write : 11.7951505550,50,0x52,W,0x09 0x50 0x40
2023-10-14 [Sat] 03:27:27 2469: REG=0x52,0x0x0950,0x40
2023-10-14 [Sat] 03:27:27 2609: offsetAddr=0950	dataStr=
2023-10-14 [Sat] 03:27:27 2829: [TransformToCfg] line=60 is i2c write : 11.7969534700,52,0x52,W,0x09 0x51 0x01
2023-10-14 [Sat] 03:27:27 2869: REG=0x52,0x0x0951,0x01
2023-10-14 [Sat] 03:27:27 2989: offsetAddr=0951	dataStr=
2023-10-14 [Sat] 03:27:27 3119: [TransformToCfg] line=61 is i2c write : 11.7971444000,53,0x52,W,0x09 0x52 0x41
2023-10-14 [Sat] 03:27:27 3209: REG=0x52,0x0x0952,0x41
2023-10-14 [Sat] 03:27:27 3349: offsetAddr=0952	dataStr=
2023-10-14 [Sat] 03:27:27 3519: [TransformToCfg] line=62 is i2c write : 11.7987339900,54,0x52,W,0x09 0x52 0xA9 0xFF
2023-10-14 [Sat] 03:27:27 3619: REG=0x52,0x0x0952,0xA9
2023-10-14 [Sat] 03:27:27 3759: offsetAddr=0952	dataStr=0xFF
2023-10-14 [Sat] 03:27:27 3909: REG=0x52,0x0952,0xFF
2023-10-14 [Sat] 03:27:27 4029: offsetAddr=0953	dataStr=
2023-10-14 [Sat] 03:31:34 6138: REG=0x90,0x0001,0x02
2023-10-14 [Sat] 03:31:34 6158: [KingstToCfg] line=0  offsetAddr=0001	dataStr=
2023-10-14 [Sat] 03:31:34 6348: REG=0x90,0x0051,0x02
2023-10-14 [Sat] 03:31:34 6448: [KingstToCfg] line=0  offsetAddr=0051	dataStr=
2023-10-14 [Sat] 03:31:34 6638: REG=0x90,0x0052,0x01
2023-10-14 [Sat] 03:31:34 6748: [KingstToCfg] line=0  offsetAddr=0052	dataStr=
2023-10-14 [Sat] 03:31:34 6938: REG=0x90,0x0320,0x2A
2023-10-14 [Sat] 03:31:34 7048: [KingstToCfg] line=0  offsetAddr=0320	dataStr=
2023-10-14 [Sat] 03:31:34 7198: REG=0x90,0x02C5,0x83
2023-10-14 [Sat] 03:31:34 7298: [KingstToCfg] line=0  offsetAddr=02C5	dataStr=
2023-10-14 [Sat] 03:31:34 7492: REG=0x90,0x02C6,0xA8
2023-10-14 [Sat] 03:31:34 7602: [KingstToCfg] line=0  offsetAddr=02C6	dataStr=
2023-10-14 [Sat] 03:31:34 7762: REG=0x84,0x0318,0x6D
2023-10-14 [Sat] 03:31:34 7892: [KingstToCfg] line=0  offsetAddr=0318	dataStr=
2023-10-14 [Sat] 03:31:34 8032: REG=0x84,0x0000,0xC8
2023-10-14 [Sat] 03:31:34 8162: [KingstToCfg] line=0  offsetAddr=0000	dataStr=
2023-10-14 [Sat] 03:31:34 8342: REG=0x90,0x0000,0xD8
2023-10-14 [Sat] 03:31:34 8452: [KingstToCfg] line=0  offsetAddr=0000	dataStr=
2023-10-14 [Sat] 03:31:34 8752: REG=0x52,0x040B,0x00
2023-10-14 [Sat] 03:31:34 8762: [KingstToCfg] line=0  offsetAddr=040B	dataStr=
2023-10-14 [Sat] 03:31:34 8932: REG=0x52,0x08A0,0x04
2023-10-14 [Sat] 03:31:34 9062: [KingstToCfg] line=0  offsetAddr=08A0	dataStr=
2023-10-14 [Sat] 03:31:34 9232: REG=0x52,0x0010,0x11
2023-10-14 [Sat] 03:31:34 9352: [KingstToCfg] line=0  offsetAddr=0010	dataStr=
2023-10-14 [Sat] 03:31:34 9542: REG=0x52,0x0011,0x21
2023-10-14 [Sat] 03:31:34 9675: [KingstToCfg] line=0  offsetAddr=0011	dataStr=
2023-10-14 [Sat] 03:31:34 9845: REG=0x52,0x008C,0x87
2023-10-14 [Sat] 03:31:34 9955: [KingstToCfg] line=0  offsetAddr=008C	dataStr=
2023-10-14 [Sat] 03:31:35 0125: REG=0x52,0x0006,0xFF
2023-10-14 [Sat] 03:31:35 0235: [KingstToCfg] line=0  offsetAddr=0006	dataStr=
2023-10-14 [Sat] 03:31:35 0415: REG=0x52,0x040B,0x00
2023-10-14 [Sat] 03:31:35 0525: [KingstToCfg] line=0  offsetAddr=040B	dataStr=
2023-10-14 [Sat] 03:31:35 0715: REG=0x52,0x06C2,0x10
2023-10-14 [Sat] 03:31:35 0795: [KingstToCfg] line=0  offsetAddr=06C2	dataStr=
2023-10-14 [Sat] 03:31:35 0965: REG=0x52,0x14D1,0x03
2023-10-14 [Sat] 03:31:35 1095: [KingstToCfg] line=0  offsetAddr=14D1	dataStr=
2023-10-14 [Sat] 03:31:35 1265: REG=0x52,0x15D1,0x03
2023-10-14 [Sat] 03:31:35 1375: [KingstToCfg] line=0  offsetAddr=15D1	dataStr=
2023-10-14 [Sat] 03:31:35 1555: REG=0x52,0x16D1,0x03
2023-10-14 [Sat] 03:31:35 1655: [KingstToCfg] line=0  offsetAddr=16D1	dataStr=
2023-10-14 [Sat] 03:31:35 1855: REG=0x52,0x17D1,0x03
2023-10-14 [Sat] 03:31:35 1975: [KingstToCfg] line=0  offsetAddr=17D1	dataStr=
2023-10-14 [Sat] 03:31:35 2125: REG=0x52,0x0006,0xFF
2023-10-14 [Sat] 03:31:35 2255: [KingstToCfg] line=0  offsetAddr=0006	dataStr=
2023-10-14 [Sat] 03:31:35 2385: REG=0x52,0x00F0,0x62
2023-10-14 [Sat] 03:31:35 2515: [KingstToCfg] line=0  offsetAddr=00F0	dataStr=
2023-10-14 [Sat] 03:31:35 2675: REG=0x52,0x00F1,0xEA
2023-10-14 [Sat] 03:31:35 2775: [KingstToCfg] line=0  offsetAddr=00F1	dataStr=
2023-10-14 [Sat] 03:31:35 2959: REG=0x52,0x00F4,0x0F
2023-10-14 [Sat] 03:31:35 3089: [KingstToCfg] line=0  offsetAddr=00F4	dataStr=
2023-10-14 [Sat] 03:31:35 3249: REG=0x52,0x0106,0x0A
2023-10-14 [Sat] 03:31:35 3349: [KingstToCfg] line=0  offsetAddr=0106	dataStr=
2023-10-14 [Sat] 03:31:35 3509: REG=0x52,0x012A,0x0A
2023-10-14 [Sat] 03:31:35 3629: [KingstToCfg] line=0  offsetAddr=012A	dataStr=
2023-10-14 [Sat] 03:31:35 3769: REG=0x52,0x00CF,0x42
2023-10-14 [Sat] 03:31:35 3909: [KingstToCfg] line=0  offsetAddr=00CF	dataStr=
2023-10-14 [Sat] 03:31:35 4079: REG=0x52,0x090B,0x07
2023-10-14 [Sat] 03:31:35 4159: [KingstToCfg] line=0  offsetAddr=090B	dataStr=
2023-10-14 [Sat] 03:31:35 4339: REG=0x52,0x092D,0x15
2023-10-14 [Sat] 03:31:35 4469: [KingstToCfg] line=0  offsetAddr=092D	dataStr=
2023-10-14 [Sat] 03:31:35 4620: REG=0x52,0x090D,0x2D
2023-10-14 [Sat] 03:31:35 4720: [KingstToCfg] line=0  offsetAddr=090D	dataStr=
2023-10-14 [Sat] 03:31:35 4870: REG=0x52,0x090E,0x2D
2023-10-14 [Sat] 03:31:35 4970: [KingstToCfg] line=0  offsetAddr=090E	dataStr=
2023-10-14 [Sat] 03:31:35 5190: REG=0x52,0x090F,0x00
2023-10-14 [Sat] 03:31:35 5220: [KingstToCfg] line=0  offsetAddr=090F	dataStr=
2023-10-14 [Sat] 03:31:35 5378: REG=0x52,0x0910,0x00
2023-10-14 [Sat] 03:31:35 5498: [KingstToCfg] line=0  offsetAddr=0910	dataStr=
2023-10-14 [Sat] 03:31:35 5738: REG=0x52,0x0911,0x01
2023-10-14 [Sat] 03:31:35 5778: [KingstToCfg] line=0  offsetAddr=0911	dataStr=
2023-10-14 [Sat] 03:31:35 5938: REG=0x52,0x0912,0x01
2023-10-14 [Sat] 03:31:35 6078: [KingstToCfg] line=0  offsetAddr=0912	dataStr=
2023-10-14 [Sat] 03:31:35 6278: REG=0x52,0x094B,0x07
2023-10-14 [Sat] 03:31:35 6368: [KingstToCfg] line=0  offsetAddr=094B	dataStr=
2023-10-14 [Sat] 03:31:35 6508: REG=0x52,0x096D,0x15
2023-10-14 [Sat] 03:31:35 6668: [KingstToCfg] line=0  offsetAddr=096D	dataStr=
2023-10-14 [Sat] 03:31:35 6858: REG=0x52,0x094D,0x2D
2023-10-14 [Sat] 03:31:35 6968: [KingstToCfg] line=0  offsetAddr=094D	dataStr=
2023-10-14 [Sat] 03:31:35 7118: REG=0x52,0x094E,0x6D
2023-10-14 [Sat] 03:31:35 7258: [KingstToCfg] line=0  offsetAddr=094E	dataStr=
2023-10-14 [Sat] 03:31:35 7508: REG=0x52,0x0950,0x40
2023-10-14 [Sat] 03:31:35 7568: [KingstToCfg] line=0  offsetAddr=0950	dataStr=
2023-10-14 [Sat] 03:31:35 7838: REG=0x52,0x0951,0x01
2023-10-14 [Sat] 03:31:35 7898: [KingstToCfg] line=0  offsetAddr=0951	dataStr=
2023-10-14 [Sat] 03:31:35 8068: REG=0x52,0x0952,0x41
2023-10-14 [Sat] 03:31:35 8188: [KingstToCfg] line=0  offsetAddr=0952	dataStr=
2023-10-14 [Sat] 03:31:35 8338: REG=0x52,0x0952,0xA9
2023-10-14 [Sat] 03:31:35 8468: [KingstToCfg] line=0  offsetAddr=0952	dataStr=0xFF
2023-10-14 [Sat] 03:31:35 8648: REG=0x52,0952,0xFF
2023-10-14 [Sat] 03:31:35 8798: [KingstToCfg] line=1  offsetAddr=0953	dataStr=
2023-10-14 [Sat] 03:32:46 1468: REG=0x90,0x0001,0x02
2023-10-14 [Sat] 03:32:46 1478: [KingstToCfg] line=0  offsetAddr=1xX4	dataStr=
2023-10-14 [Sat] 03:32:46 1658: REG=0x90,0x0051,0x02
2023-10-14 [Sat] 03:32:46 1768: [KingstToCfg] line=0  offsetAddr=81xX4	dataStr=
2023-10-14 [Sat] 03:32:46 1918: REG=0x90,0x0052,0x01
2023-10-14 [Sat] 03:32:46 2058: [KingstToCfg] line=0  offsetAddr=82xX4	dataStr=
2023-10-14 [Sat] 03:32:46 2218: REG=0x90,0x0320,0x2A
2023-10-14 [Sat] 03:32:46 2338: [KingstToCfg] line=0  offsetAddr=800xX4	dataStr=
2023-10-14 [Sat] 03:32:46 2498: REG=0x90,0x02C5,0x83
2023-10-14 [Sat] 03:32:46 2608: [KingstToCfg] line=0  offsetAddr=709xX4	dataStr=
2023-10-14 [Sat] 03:32:46 2738: REG=0x90,0x02C6,0xA8
2023-10-14 [Sat] 03:32:46 2868: [KingstToCfg] line=0  offsetAddr=710xX4	dataStr=
2023-10-14 [Sat] 03:32:46 3038: REG=0x84,0x0318,0x6D
2023-10-14 [Sat] 03:32:46 3148: [KingstToCfg] line=0  offsetAddr=792xX4	dataStr=
2023-10-14 [Sat] 03:32:46 3328: REG=0x84,0x0000,0xC8
2023-10-14 [Sat] 03:32:46 3418: [KingstToCfg] line=0  offsetAddr=0xX4	dataStr=
2023-10-14 [Sat] 03:32:46 3578: REG=0x90,0x0000,0xD8
2023-10-14 [Sat] 03:32:46 3668: [KingstToCfg] line=0  offsetAddr=0xX4	dataStr=
2023-10-14 [Sat] 03:32:46 3998: REG=0x52,0x040B,0x00
2023-10-14 [Sat] 03:32:46 4008: [KingstToCfg] line=0  offsetAddr=1035xX4	dataStr=
2023-10-14 [Sat] 03:32:46 4178: REG=0x52,0x08A0,0x04
2023-10-14 [Sat] 03:32:46 4298: [KingstToCfg] line=0  offsetAddr=2208xX4	dataStr=
2023-10-14 [Sat] 03:32:46 4458: REG=0x52,0x0010,0x11
2023-10-14 [Sat] 03:32:46 4598: [KingstToCfg] line=0  offsetAddr=16xX4	dataStr=
2023-10-14 [Sat] 03:32:46 4772: REG=0x52,0x0011,0x21
2023-10-14 [Sat] 03:32:46 4862: [KingstToCfg] line=0  offsetAddr=17xX4	dataStr=
2023-10-14 [Sat] 03:32:46 5022: REG=0x52,0x008C,0x87
2023-10-14 [Sat] 03:32:46 5142: [KingstToCfg] line=0  offsetAddr=140xX4	dataStr=
2023-10-14 [Sat] 03:32:46 5322: REG=0x52,0x0006,0xFF
2023-10-14 [Sat] 03:32:46 5422: [KingstToCfg] line=0  offsetAddr=6xX4	dataStr=
2023-10-14 [Sat] 03:32:46 5592: REG=0x52,0x040B,0x00
2023-10-14 [Sat] 03:32:46 5712: [KingstToCfg] line=0  offsetAddr=1035xX4	dataStr=
2023-10-14 [Sat] 03:32:46 5862: REG=0x52,0x06C2,0x10
2023-10-14 [Sat] 03:32:46 5972: [KingstToCfg] line=0  offsetAddr=1730xX4	dataStr=
2023-10-14 [Sat] 03:32:46 6142: REG=0x52,0x14D1,0x03
2023-10-14 [Sat] 03:32:46 6232: [KingstToCfg] line=0  offsetAddr=5329xX4	dataStr=
2023-10-14 [Sat] 03:32:46 6372: REG=0x52,0x15D1,0x03
2023-10-14 [Sat] 03:32:46 6502: [KingstToCfg] line=0  offsetAddr=5585xX4	dataStr=
2023-10-14 [Sat] 03:32:46 6662: REG=0x52,0x16D1,0x03
2023-10-14 [Sat] 03:32:46 6762: [KingstToCfg] line=0  offsetAddr=5841xX4	dataStr=
2023-10-14 [Sat] 03:32:46 6892: REG=0x52,0x17D1,0x03
2023-10-14 [Sat] 03:32:46 7032: [KingstToCfg] line=0  offsetAddr=6097xX4	dataStr=
2023-10-14 [Sat] 03:32:46 7210: REG=0x52,0x0006,0xFF
2023-10-14 [Sat] 03:32:46 7350: [KingstToCfg] line=0  offsetAddr=6xX4	dataStr=
2023-10-14 [Sat] 03:32:46 7520: REG=0x52,0x00F0,0x62
2023-10-14 [Sat] 03:32:46 7630: [KingstToCfg] line=0  offsetAddr=240xX4	dataStr=
2023-10-14 [Sat] 03:32:46 7830: REG=0x52,0x00F1,0xEA
2023-10-14 [Sat] 03:32:46 7930: [KingstToCfg] line=0  offsetAddr=241xX4	dataStr=
2023-10-14 [Sat] 03:32:46 8100: REG=0x52,0x00F4,0x0F
2023-10-14 [Sat] 03:32:46 8200: [KingstToCfg] line=0  offsetAddr=244xX4	dataStr=
2023-10-14 [Sat] 03:32:46 8380: REG=0x52,0x0106,0x0A
2023-10-14 [Sat] 03:32:46 8480: [KingstToCfg] line=0  offsetAddr=262xX4	dataStr=
2023-10-14 [Sat] 03:32:46 8680: REG=0x52,0x012A,0x0A
2023-10-14 [Sat] 03:32:46 8790: [KingstToCfg] line=0  offsetAddr=298xX4	dataStr=
2023-10-14 [Sat] 03:32:46 8960: REG=0x52,0x00CF,0x42
2023-10-14 [Sat] 03:32:46 9090: [KingstToCfg] line=0  offsetAddr=207xX4	dataStr=
2023-10-14 [Sat] 03:32:46 9260: REG=0x52,0x090B,0x07
2023-10-14 [Sat] 03:32:46 9390: [KingstToCfg] line=0  offsetAddr=2315xX4	dataStr=
2023-10-14 [Sat] 03:32:46 9560: REG=0x52,0x092D,0x15
2023-10-14 [Sat] 03:32:46 9710: [KingstToCfg] line=0  offsetAddr=2349xX4	dataStr=
2023-10-14 [Sat] 03:32:46 9850: REG=0x52,0x090D,0x2D
2023-10-14 [Sat] 03:32:46 9980: [KingstToCfg] line=0  offsetAddr=2317xX4	dataStr=
2023-10-14 [Sat] 03:32:47 0130: REG=0x52,0x090E,0x2D
2023-10-14 [Sat] 03:32:47 0250: [KingstToCfg] line=0  offsetAddr=2318xX4	dataStr=
2023-10-14 [Sat] 03:32:47 0430: REG=0x52,0x090F,0x00
2023-10-14 [Sat] 03:32:47 0520: [KingstToCfg] line=0  offsetAddr=2319xX4	dataStr=
2023-10-14 [Sat] 03:32:47 0670: REG=0x52,0x0910,0x00
2023-10-14 [Sat] 03:32:47 0780: [KingstToCfg] line=0  offsetAddr=2320xX4	dataStr=
2023-10-14 [Sat] 03:32:47 1010: REG=0x52,0x0911,0x01
2023-10-14 [Sat] 03:32:47 1070: [KingstToCfg] line=0  offsetAddr=2321xX4	dataStr=
2023-10-14 [Sat] 03:32:47 1210: REG=0x52,0x0912,0x01
2023-10-14 [Sat] 03:32:47 1320: [KingstToCfg] line=0  offsetAddr=2322xX4	dataStr=
2023-10-14 [Sat] 03:32:47 1550: REG=0x52,0x094B,0x07
2023-10-14 [Sat] 03:32:47 1600: [KingstToCfg] line=0  offsetAddr=2379xX4	dataStr=
2023-10-14 [Sat] 03:32:47 1750: REG=0x52,0x096D,0x15
2023-10-14 [Sat] 03:32:47 1840: [KingstToCfg] line=0  offsetAddr=2413xX4	dataStr=
2023-10-14 [Sat] 03:32:47 2056: REG=0x52,0x094D,0x2D
2023-10-14 [Sat] 03:32:47 2603: [KingstToCfg] line=0  offsetAddr=2381xX4	dataStr=
2023-10-14 [Sat] 03:32:47 2753: REG=0x52,0x094E,0x6D
2023-10-14 [Sat] 03:32:47 2873: [KingstToCfg] line=0  offsetAddr=2382xX4	dataStr=
2023-10-14 [Sat] 03:32:47 3083: REG=0x52,0x0950,0x40
2023-10-14 [Sat] 03:32:47 3153: [KingstToCfg] line=0  offsetAddr=2384xX4	dataStr=
2023-10-14 [Sat] 03:32:47 3373: REG=0x52,0x0951,0x01
2023-10-14 [Sat] 03:32:47 3433: [KingstToCfg] line=0  offsetAddr=2385xX4	dataStr=
2023-10-14 [Sat] 03:32:47 3593: REG=0x52,0x0952,0x41
2023-10-14 [Sat] 03:32:47 3673: [KingstToCfg] line=0  offsetAddr=2386xX4	dataStr=
2023-10-14 [Sat] 03:32:47 3833: REG=0x52,0x0952,0xA9
2023-10-14 [Sat] 03:32:47 3943: [KingstToCfg] line=0  offsetAddr=2386xX4	dataStr=0xFF
2023-10-14 [Sat] 03:32:47 4083: REG=0x52,2386xX4,0xFF
2023-10-14 [Sat] 03:32:47 4203: [KingstToCfg] line=1  offsetAddr=2387xX4	dataStr=
2023-10-14 [Sat] 03:33:49 8449: REG=0x90,0x0001,0x02
2023-10-14 [Sat] 03:33:49 8469: [KingstToCfg] line=0  offsetAddr=0x0001	dataStr=
2023-10-14 [Sat] 03:33:49 8649: REG=0x90,0x0051,0x02
2023-10-14 [Sat] 03:33:49 8759: [KingstToCfg] line=0  offsetAddr=0x0051	dataStr=
2023-10-14 [Sat] 03:33:49 8959: REG=0x90,0x0052,0x01
2023-10-14 [Sat] 03:33:49 9049: [KingstToCfg] line=0  offsetAddr=0x0052	dataStr=
2023-10-14 [Sat] 03:33:49 9229: REG=0x90,0x0320,0x2A
2023-10-14 [Sat] 03:33:49 9339: [KingstToCfg] line=0  offsetAddr=0x0320	dataStr=
2023-10-14 [Sat] 03:33:49 9519: REG=0x90,0x02C5,0x83
2023-10-14 [Sat] 03:33:49 9609: [KingstToCfg] line=0  offsetAddr=0x02C5	dataStr=
2023-10-14 [Sat] 03:33:49 9779: REG=0x90,0x02C6,0xA8
2023-10-14 [Sat] 03:33:49 9879: [KingstToCfg] line=0  offsetAddr=0x02C6	dataStr=
2023-10-14 [Sat] 03:33:50 0039: REG=0x84,0x0318,0x6D
2023-10-14 [Sat] 03:33:50 0159: [KingstToCfg] line=0  offsetAddr=0x0318	dataStr=
2023-10-14 [Sat] 03:33:50 0349: REG=0x84,0x0000,0xC8
2023-10-14 [Sat] 03:33:50 0469: [KingstToCfg] line=0  offsetAddr=0x0000	dataStr=
2023-10-14 [Sat] 03:33:50 0639: REG=0x90,0x0000,0xD8
2023-10-14 [Sat] 03:33:50 0759: [KingstToCfg] line=0  offsetAddr=0x0000	dataStr=
2023-10-14 [Sat] 03:33:50 1079: REG=0x52,0x040B,0x00
2023-10-14 [Sat] 03:33:50 1099: [KingstToCfg] line=0  offsetAddr=0x040B	dataStr=
2023-10-14 [Sat] 03:33:50 1307: REG=0x52,0x08A0,0x04
2023-10-14 [Sat] 03:33:50 1417: [KingstToCfg] line=0  offsetAddr=0x08A0	dataStr=
2023-10-14 [Sat] 03:33:50 1557: REG=0x52,0x0010,0x11
2023-10-14 [Sat] 03:33:50 1687: [KingstToCfg] line=0  offsetAddr=0x0010	dataStr=
2023-10-14 [Sat] 03:33:50 1837: REG=0x52,0x0011,0x21
2023-10-14 [Sat] 03:33:50 1947: [KingstToCfg] line=0  offsetAddr=0x0011	dataStr=
2023-10-14 [Sat] 03:33:50 2117: REG=0x52,0x008C,0x87
2023-10-14 [Sat] 03:33:50 2217: [KingstToCfg] line=0  offsetAddr=0x008C	dataStr=
2023-10-14 [Sat] 03:33:50 2387: REG=0x52,0x0006,0xFF
2023-10-14 [Sat] 03:33:50 2487: [KingstToCfg] line=0  offsetAddr=0x0006	dataStr=
2023-10-14 [Sat] 03:33:50 2667: REG=0x52,0x040B,0x00
2023-10-14 [Sat] 03:33:50 2767: [KingstToCfg] line=0  offsetAddr=0x040B	dataStr=
2023-10-14 [Sat] 03:33:50 2947: REG=0x52,0x06C2,0x10
2023-10-14 [Sat] 03:33:50 3037: [KingstToCfg] line=0  offsetAddr=0x06C2	dataStr=
2023-10-14 [Sat] 03:33:50 3238: REG=0x52,0x14D1,0x03
2023-10-14 [Sat] 03:33:50 3365: [KingstToCfg] line=0  offsetAddr=0x14D1	dataStr=
2023-10-14 [Sat] 03:33:50 3515: REG=0x52,0x15D1,0x03
2023-10-14 [Sat] 03:33:50 3645: [KingstToCfg] line=0  offsetAddr=0x15D1	dataStr=
2023-10-14 [Sat] 03:33:50 3815: REG=0x52,0x16D1,0x03
2023-10-14 [Sat] 03:33:50 3945: [KingstToCfg] line=0  offsetAddr=0x16D1	dataStr=
2023-10-14 [Sat] 03:33:50 4085: REG=0x52,0x17D1,0x03
2023-10-14 [Sat] 03:33:50 4255: [KingstToCfg] line=0  offsetAddr=0x17D1	dataStr=
2023-10-14 [Sat] 03:33:50 4405: REG=0x52,0x0006,0xFF
2023-10-14 [Sat] 03:33:50 4535: [KingstToCfg] line=0  offsetAddr=0x0006	dataStr=
2023-10-14 [Sat] 03:33:50 4725: REG=0x52,0x00F0,0x62
2023-10-14 [Sat] 03:33:50 4835: [KingstToCfg] line=0  offsetAddr=0x00F0	dataStr=
2023-10-14 [Sat] 03:33:50 4985: REG=0x52,0x00F1,0xEA
2023-10-14 [Sat] 03:33:50 5125: [KingstToCfg] line=0  offsetAddr=0x00F1	dataStr=
2023-10-14 [Sat] 03:33:50 5285: REG=0x52,0x00F4,0x0F
2023-10-14 [Sat] 03:33:50 5395: [KingstToCfg] line=0  offsetAddr=0x00F4	dataStr=
2023-10-14 [Sat] 03:33:50 5595: REG=0x52,0x0106,0x0A
2023-10-14 [Sat] 03:33:50 5725: [KingstToCfg] line=0  offsetAddr=0x0106	dataStr=
2023-10-14 [Sat] 03:33:50 5945: REG=0x52,0x012A,0x0A
2023-10-14 [Sat] 03:33:50 6035: [KingstToCfg] line=0  offsetAddr=0x012A	dataStr=
2023-10-14 [Sat] 03:33:50 6225: REG=0x52,0x00CF,0x42
2023-10-14 [Sat] 03:33:50 6335: [KingstToCfg] line=0  offsetAddr=0x00CF	dataStr=
2023-10-14 [Sat] 03:33:50 6525: REG=0x52,0x090B,0x07
2023-10-14 [Sat] 03:33:50 6635: [KingstToCfg] line=0  offsetAddr=0x090B	dataStr=
2023-10-14 [Sat] 03:33:50 6825: REG=0x52,0x092D,0x15
2023-10-14 [Sat] 03:33:50 6955: [KingstToCfg] line=0  offsetAddr=0x092D	dataStr=
2023-10-14 [Sat] 03:33:50 7135: REG=0x52,0x090D,0x2D
2023-10-14 [Sat] 03:33:50 8189: [KingstToCfg] line=0  offsetAddr=0x090D	dataStr=
2023-10-14 [Sat] 03:33:50 8349: REG=0x52,0x090E,0x2D
2023-10-14 [Sat] 03:33:50 8489: [KingstToCfg] line=0  offsetAddr=0x090E	dataStr=
2023-10-14 [Sat] 03:33:50 8739: REG=0x52,0x090F,0x00
2023-10-14 [Sat] 03:33:50 8789: [KingstToCfg] line=0  offsetAddr=0x090F	dataStr=
2023-10-14 [Sat] 03:33:50 8949: REG=0x52,0x0910,0x00
2023-10-14 [Sat] 03:33:50 9089: [KingstToCfg] line=0  offsetAddr=0x0910	dataStr=
2023-10-14 [Sat] 03:33:50 9269: REG=0x52,0x0911,0x01
2023-10-14 [Sat] 03:33:50 9359: [KingstToCfg] line=0  offsetAddr=0x0911	dataStr=
2023-10-14 [Sat] 03:33:50 9519: REG=0x52,0x0912,0x01
2023-10-14 [Sat] 03:33:50 9659: [KingstToCfg] line=0  offsetAddr=0x0912	dataStr=
2023-10-14 [Sat] 03:33:50 9879: REG=0x52,0x094B,0x07
2023-10-14 [Sat] 03:33:50 9959: [KingstToCfg] line=0  offsetAddr=0x094B	dataStr=
2023-10-14 [Sat] 03:33:51 0129: REG=0x52,0x096D,0x15
2023-10-14 [Sat] 03:33:51 0229: [KingstToCfg] line=0  offsetAddr=0x096D	dataStr=
2023-10-14 [Sat] 03:33:51 0389: REG=0x52,0x094D,0x2D
2023-10-14 [Sat] 03:33:51 0479: [KingstToCfg] line=0  offsetAddr=0x094D	dataStr=
2023-10-14 [Sat] 03:33:51 0679: REG=0x52,0x094E,0x6D
2023-10-14 [Sat] 03:33:51 0789: [KingstToCfg] line=0  offsetAddr=0x094E	dataStr=
2023-10-14 [Sat] 03:33:51 1049: REG=0x52,0x0950,0x40
2023-10-14 [Sat] 03:33:51 1129: [KingstToCfg] line=0  offsetAddr=0x0950	dataStr=
2023-10-14 [Sat] 03:33:51 1329: REG=0x52,0x0951,0x01
2023-10-14 [Sat] 03:33:51 1459: [KingstToCfg] line=0  offsetAddr=0x0951	dataStr=
2023-10-14 [Sat] 03:33:51 1659: REG=0x52,0x0952,0x41
2023-10-14 [Sat] 03:33:51 1769: [KingstToCfg] line=0  offsetAddr=0x0952	dataStr=
2023-10-14 [Sat] 03:33:51 1969: REG=0x52,0x0952,0xA9
2023-10-14 [Sat] 03:33:51 2119: [KingstToCfg] line=0  offsetAddr=0x0952	dataStr=0xFF
2023-10-14 [Sat] 03:33:51 2279: REG=0x52,0x0952,0xFF
2023-10-14 [Sat] 03:33:51 2429: [KingstToCfg] line=1  offsetAddr=0x0953	dataStr=
2023-10-14 [Sat] 03:36:17 3196: REG=0x90,0x0001,0x02
2023-10-14 [Sat] 03:36:17 3216: [KingstToCfg] line=0  offsetAddr=0x0001	dataStr=
2023-10-14 [Sat] 03:36:17 3406: REG=0x90,0x0051,0x02
2023-10-14 [Sat] 03:36:17 3496: [KingstToCfg] line=0  offsetAddr=0x0051	dataStr=
2023-10-14 [Sat] 03:36:17 3716: REG=0x90,0x0052,0x01
2023-10-14 [Sat] 03:36:17 3836: [KingstToCfg] line=0  offsetAddr=0x0052	dataStr=
2023-10-14 [Sat] 03:36:17 3986: REG=0x90,0x0320,0x2A
2023-10-14 [Sat] 03:36:17 4146: [KingstToCfg] line=0  offsetAddr=0x0320	dataStr=
2023-10-14 [Sat] 03:36:17 4336: REG=0x90,0x02C5,0x83
2023-10-14 [Sat] 03:36:17 4496: [KingstToCfg] line=0  offsetAddr=0x02C5	dataStr=
2023-10-14 [Sat] 03:36:17 4706: REG=0x90,0x02C6,0xA8
2023-10-14 [Sat] 03:36:17 4876: [KingstToCfg] line=0  offsetAddr=0x02C6	dataStr=
2023-10-14 [Sat] 03:36:17 5046: REG=0x84,0x0318,0x6D
2023-10-14 [Sat] 03:36:17 5166: [KingstToCfg] line=0  offsetAddr=0x0318	dataStr=
2023-10-14 [Sat] 03:36:17 5316: REG=0x84,0x0000,0xC8
2023-10-14 [Sat] 03:36:17 5466: [KingstToCfg] line=0  offsetAddr=0x0000	dataStr=
2023-10-14 [Sat] 03:36:17 5666: REG=0x90,0x0000,0xD8
2023-10-14 [Sat] 03:36:17 5756: [KingstToCfg] line=0  offsetAddr=0x0000	dataStr=
2023-10-14 [Sat] 03:36:17 6066: REG=0x52,0x040B,0x00
2023-10-14 [Sat] 03:36:17 6086: [KingstToCfg] line=0  offsetAddr=0x040B	dataStr=
2023-10-14 [Sat] 03:36:17 6246: REG=0x52,0x08A0,0x04
2023-10-14 [Sat] 03:36:17 6336: [KingstToCfg] line=0  offsetAddr=0x08A0	dataStr=
2023-10-14 [Sat] 03:36:17 6566: REG=0x52,0x0010,0x11
2023-10-14 [Sat] 03:36:17 6636: [KingstToCfg] line=0  offsetAddr=0x0010	dataStr=
2023-10-14 [Sat] 03:36:17 6866: REG=0x52,0x0011,0x21
2023-10-14 [Sat] 03:36:17 6986: [KingstToCfg] line=0  offsetAddr=0x0011	dataStr=
2023-10-14 [Sat] 03:36:17 7166: REG=0x52,0x008C,0x87
2023-10-14 [Sat] 03:36:17 7266: [KingstToCfg] line=0  offsetAddr=0x008C	dataStr=
2023-10-14 [Sat] 03:36:17 7446: REG=0x52,0x0006,0xFF
2023-10-14 [Sat] 03:36:17 7566: [KingstToCfg] line=0  offsetAddr=0x0006	dataStr=
2023-10-14 [Sat] 03:36:17 7736: REG=0x52,0x040B,0x00
2023-10-14 [Sat] 03:36:17 7856: [KingstToCfg] line=0  offsetAddr=0x040B	dataStr=
2023-10-14 [Sat] 03:36:17 8066: REG=0x52,0x06C2,0x10
2023-10-14 [Sat] 03:36:17 8196: [KingstToCfg] line=0  offsetAddr=0x06C2	dataStr=
2023-10-14 [Sat] 03:36:17 8396: REG=0x52,0x14D1,0x03
2023-10-14 [Sat] 03:36:17 8506: [KingstToCfg] line=0  offsetAddr=0x14D1	dataStr=
2023-10-14 [Sat] 03:36:17 8671: REG=0x52,0x15D1,0x03
2023-10-14 [Sat] 03:36:17 8781: [KingstToCfg] line=0  offsetAddr=0x15D1	dataStr=
2023-10-14 [Sat] 03:36:17 8931: REG=0x52,0x16D1,0x03
2023-10-14 [Sat] 03:36:17 9081: [KingstToCfg] line=0  offsetAddr=0x16D1	dataStr=
2023-10-14 [Sat] 03:36:17 9291: REG=0x52,0x17D1,0x03
2023-10-14 [Sat] 03:36:17 9391: [KingstToCfg] line=0  offsetAddr=0x17D1	dataStr=
2023-10-14 [Sat] 03:36:17 9551: REG=0x52,0x0006,0xFF
2023-10-14 [Sat] 03:36:17 9651: [KingstToCfg] line=0  offsetAddr=0x0006	dataStr=
2023-10-14 [Sat] 03:36:17 9811: REG=0x52,0x00F0,0x62
2023-10-14 [Sat] 03:36:17 9921: [KingstToCfg] line=0  offsetAddr=0x00F0	dataStr=
2023-10-14 [Sat] 03:36:18 0061: REG=0x52,0x00F1,0xEA
2023-10-14 [Sat] 03:36:18 0201: [KingstToCfg] line=0  offsetAddr=0x00F1	dataStr=
2023-10-14 [Sat] 03:36:18 0341: REG=0x52,0x00F4,0x0F
2023-10-14 [Sat] 03:36:18 0491: [KingstToCfg] line=0  offsetAddr=0x00F4	dataStr=
2023-10-14 [Sat] 03:36:18 0651: REG=0x52,0x0106,0x0A
2023-10-14 [Sat] 03:36:18 0775: [KingstToCfg] line=0  offsetAddr=0x0106	dataStr=
2023-10-14 [Sat] 03:36:18 0985: REG=0x52,0x012A,0x0A
2023-10-14 [Sat] 03:36:18 1055: [KingstToCfg] line=0  offsetAddr=0x012A	dataStr=
2023-10-14 [Sat] 03:36:18 1275: REG=0x52,0x00CF,0x42
2023-10-14 [Sat] 03:36:18 1375: [KingstToCfg] line=0  offsetAddr=0x00CF	dataStr=
2023-10-14 [Sat] 03:36:18 1535: REG=0x52,0x090B,0x07
2023-10-14 [Sat] 03:36:18 1635: [KingstToCfg] line=0  offsetAddr=0x090B	dataStr=
2023-10-14 [Sat] 03:36:18 1775: REG=0x52,0x092D,0x15
2023-10-14 [Sat] 03:36:18 1915: [KingstToCfg] line=0  offsetAddr=0x092D	dataStr=
2023-10-14 [Sat] 03:36:18 2085: REG=0x52,0x090D,0x2D
2023-10-14 [Sat] 03:36:18 2195: [KingstToCfg] line=0  offsetAddr=0x090D	dataStr=
2023-10-14 [Sat] 03:36:18 2375: REG=0x52,0x090E,0x2D
2023-10-14 [Sat] 03:36:18 2505: [KingstToCfg] line=0  offsetAddr=0x090E	dataStr=
2023-10-14 [Sat] 03:36:18 2725: REG=0x52,0x090F,0x00
2023-10-14 [Sat] 03:36:18 2795: [KingstToCfg] line=0  offsetAddr=0x090F	dataStr=
2023-10-14 [Sat] 03:36:18 2975: REG=0x52,0x0910,0x00
2023-10-14 [Sat] 03:36:18 3085: [KingstToCfg] line=0  offsetAddr=0x0910	dataStr=
2023-10-14 [Sat] 03:36:18 3315: REG=0x52,0x0911,0x01
2023-10-14 [Sat] 03:36:18 3385: [KingstToCfg] line=0  offsetAddr=0x0911	dataStr=
2023-10-14 [Sat] 03:36:18 3535: REG=0x52,0x0912,0x01
2023-10-14 [Sat] 03:36:18 3655: [KingstToCfg] line=0  offsetAddr=0x0912	dataStr=
2023-10-14 [Sat] 03:36:18 3918: REG=0x52,0x094B,0x07
2023-10-14 [Sat] 03:36:18 3978: [KingstToCfg] line=0  offsetAddr=0x094B	dataStr=
2023-10-14 [Sat] 03:36:18 4168: REG=0x52,0x096D,0x15
2023-10-14 [Sat] 03:36:18 4268: [KingstToCfg] line=0  offsetAddr=0x096D	dataStr=
2023-10-14 [Sat] 03:36:18 4458: REG=0x52,0x094D,0x2D
2023-10-14 [Sat] 03:36:18 4568: [KingstToCfg] line=0  offsetAddr=0x094D	dataStr=
2023-10-14 [Sat] 03:36:18 4748: REG=0x52,0x094E,0x6D
2023-10-14 [Sat] 03:36:18 4858: [KingstToCfg] line=0  offsetAddr=0x094E	dataStr=
2023-10-14 [Sat] 03:36:18 5058: REG=0x52,0x0950,0x40
2023-10-14 [Sat] 03:36:18 5108: [KingstToCfg] line=0  offsetAddr=0x0950	dataStr=
2023-10-14 [Sat] 03:36:18 5318: REG=0x52,0x0951,0x01
2023-10-14 [Sat] 03:36:18 5368: [KingstToCfg] line=0  offsetAddr=0x0951	dataStr=
2023-10-14 [Sat] 03:36:18 5568: REG=0x52,0x0952,0x41
2023-10-14 [Sat] 03:36:18 5678: [KingstToCfg] line=0  offsetAddr=0x0952	dataStr=
2023-10-14 [Sat] 03:36:18 5848: REG=0x52,0x0952,0xA9
2023-10-14 [Sat] 03:36:18 5939: [KingstToCfg] line=0  offsetAddr=0x0952	dataStr=0xFF
2023-10-14 [Sat] 03:36:18 6096: REG=0x52,0x0952,0xFF
2023-10-14 [Sat] 03:36:18 6246: [KingstToCfg] line=1  offsetAddr=0x0953	dataStr=
2023-10-14 [Sat] 03:36:18 6396: REG=0x52,0x098B,0x07
2023-10-14 [Sat] 03:36:18 6536: [KingstToCfg] line=0  offsetAddr=0x098B	dataStr=
2023-10-14 [Sat] 03:36:18 6726: REG=0x52,0x09AD,0x15
2023-10-14 [Sat] 03:36:18 6836: [KingstToCfg] line=0  offsetAddr=0x09AD	dataStr=
2023-10-14 [Sat] 03:36:18 7016: REG=0x52,0x098D,0x2D
2023-10-14 [Sat] 03:36:18 7106: [KingstToCfg] line=0  offsetAddr=0x098D	dataStr=
2023-10-14 [Sat] 03:36:18 7266: REG=0x52,0x098E,0xAD
2023-10-14 [Sat] 03:36:18 7376: [KingstToCfg] line=0  offsetAddr=0x098E	dataStr=
2023-10-14 [Sat] 03:36:18 7566: REG=0x52,0x098F,0x00
2023-10-14 [Sat] 03:36:18 7636: [KingstToCfg] line=0  offsetAddr=0x098F	dataStr=
2023-10-14 [Sat] 03:36:18 7796: REG=0x52,0x0990,0x80
2023-10-14 [Sat] 03:36:18 7926: [KingstToCfg] line=0  offsetAddr=0x0990	dataStr=
2023-10-14 [Sat] 03:36:18 8116: REG=0x52,0x0991,0x01
2023-10-14 [Sat] 03:36:18 8206: [KingstToCfg] line=0  offsetAddr=0x0991	dataStr=
2023-10-14 [Sat] 03:36:18 8426: REG=0x52,0x0992,0x81
2023-10-14 [Sat] 03:36:18 8536: [KingstToCfg] line=0  offsetAddr=0x0992	dataStr=
2023-10-14 [Sat] 03:36:18 8756: REG=0x52,0x09CB,0x07
2023-10-14 [Sat] 03:36:18 8826: [KingstToCfg] line=0  offsetAddr=0x09CB	dataStr=
2023-10-14 [Sat] 03:36:18 9016: REG=0x52,0x09ED,0x15
2023-10-14 [Sat] 03:36:18 9126: [KingstToCfg] line=0  offsetAddr=0x09ED	dataStr=
2023-10-14 [Sat] 03:36:18 9306: REG=0x52,0x09CD,0x2D
2023-10-14 [Sat] 03:36:18 9416: [KingstToCfg] line=0  offsetAddr=0x09CD	dataStr=
2023-10-14 [Sat] 03:36:18 9616: REG=0x52,0x09CE,0xED
2023-10-14 [Sat] 03:36:18 9726: [KingstToCfg] line=0  offsetAddr=0x09CE	dataStr=
2023-10-14 [Sat] 03:36:18 9946: REG=0x52,0x09CF,0x00
2023-10-14 [Sat] 03:36:19 0056: [KingstToCfg] line=0  offsetAddr=0x09CF	dataStr=
2023-10-14 [Sat] 03:36:19 0196: REG=0x52,0x09D0,0xC0
2023-10-14 [Sat] 03:36:19 0316: [KingstToCfg] line=0  offsetAddr=0x09D0	dataStr=
2023-10-14 [Sat] 03:36:19 0536: REG=0x52,0x09D1,0x01
2023-10-14 [Sat] 03:36:19 0616: [KingstToCfg] line=0  offsetAddr=0x09D1	dataStr=
2023-10-14 [Sat] 03:36:19 0846: REG=0x52,0x09D2,0xC1
2023-10-14 [Sat] 03:36:19 0946: [KingstToCfg] line=0  offsetAddr=0x09D2	dataStr=
2023-10-14 [Sat] 03:36:19 1157: REG=0x52,0x08A0,0x04
2023-10-14 [Sat] 03:36:19 1246: [KingstToCfg] line=0  offsetAddr=0x08A0	dataStr=
2023-10-14 [Sat] 03:36:19 1396: REG=0x52,0x08A3,0xE4
2023-10-14 [Sat] 03:36:19 1554: [KingstToCfg] line=0  offsetAddr=0x08A3	dataStr=
2023-10-14 [Sat] 03:36:19 1784: REG=0x52,0x08A4,0xE4
2023-10-14 [Sat] 03:36:19 1974: [KingstToCfg] line=0  offsetAddr=0x08A4	dataStr=
2023-10-14 [Sat] 03:36:19 2154: REG=0x52,0x090A,0xC0
2023-10-14 [Sat] 03:36:19 2304: [KingstToCfg] line=0  offsetAddr=0x090A	dataStr=
2023-10-14 [Sat] 03:36:19 2544: REG=0x52,0x094A,0xC0
2023-10-14 [Sat] 03:36:19 2664: [KingstToCfg] line=0  offsetAddr=0x094A	dataStr=
2023-10-14 [Sat] 03:36:19 2894: REG=0x52,0x098A,0xC0
2023-10-14 [Sat] 03:36:19 3054: [KingstToCfg] line=0  offsetAddr=0x098A	dataStr=
2023-10-14 [Sat] 03:36:19 3264: REG=0x52,0x09E5,0xE0
2023-10-14 [Sat] 03:36:19 3374: [KingstToCfg] line=0  offsetAddr=0x09E5	dataStr=
2023-10-14 [Sat] 03:36:19 3601: REG=0x52,0x08A2,0xF6
2023-10-14 [Sat] 03:36:19 3717: [KingstToCfg] line=0  offsetAddr=0x08A2	dataStr=
2023-10-14 [Sat] 03:36:19 3957: REG=0x52,0x1D00,0xF4
2023-10-14 [Sat] 03:36:19 4037: [KingstToCfg] line=0  offsetAddr=0x1D00	dataStr=
2023-10-14 [Sat] 03:36:19 4247: REG=0x52,0x0F80,0xFA
2023-10-14 [Sat] 03:36:19 4367: [KingstToCfg] line=0  offsetAddr=0x0F80	dataStr=
2023-10-14 [Sat] 03:36:19 4527: REG=0x52,0x1F00,0xF4
2023-10-14 [Sat] 03:36:19 4647: [KingstToCfg] line=0  offsetAddr=0x1F00	dataStr=
2023-10-14 [Sat] 03:36:19 4827: REG=0x52,0x0415,0x3C
2023-10-14 [Sat] 03:36:19 4967: [KingstToCfg] line=0  offsetAddr=0x0415	dataStr=
2023-10-14 [Sat] 03:36:19 5107: REG=0x52,0x0418,0x38
2023-10-14 [Sat] 03:36:19 5257: [KingstToCfg] line=0  offsetAddr=0x0418	dataStr=
2023-10-14 [Sat] 03:36:19 5457: REG=0x52,0x041B,0x9C
2023-10-14 [Sat] 03:36:19 5587: [KingstToCfg] line=0  offsetAddr=0x041B	dataStr=
2023-10-14 [Sat] 03:36:19 5757: REG=0x52,0x041F,0x9C
2023-10-14 [Sat] 03:36:19 5887: [KingstToCfg] line=0  offsetAddr=0x041F	dataStr=
2023-10-14 [Sat] 03:36:19 6107: REG=0x52,0x1C00,0xF5
2023-10-14 [Sat] 03:36:19 6217: [KingstToCfg] line=0  offsetAddr=0x1C00	dataStr=
2023-10-14 [Sat] 03:36:19 6397: REG=0x52,0x1D00,0xF5
2023-10-14 [Sat] 03:36:19 6497: [KingstToCfg] line=0  offsetAddr=0x1D00	dataStr=
2023-10-14 [Sat] 03:36:19 6657: REG=0x52,0x1E00,0xF5
2023-10-14 [Sat] 03:36:19 6767: [KingstToCfg] line=0  offsetAddr=0x1E00	dataStr=
2023-10-14 [Sat] 03:36:19 6927: REG=0x52,0x1F00,0xF5
2023-10-14 [Sat] 03:36:19 7077: [KingstToCfg] line=0  offsetAddr=0x1F00	dataStr=
2023-10-14 [Sat] 03:36:19 7347: REG=0x52,0x0001,0xCC
2023-10-14 [Sat] 03:36:19 7417: [KingstToCfg] line=0  offsetAddr=0x0001	dataStr=
2023-10-14 [Sat] 03:36:19 7617: REG=0x52,0x0049,0x3F
2023-10-14 [Sat] 03:36:19 7767: [KingstToCfg] line=0  offsetAddr=0x0049	dataStr=
2023-10-14 [Sat] 03:36:19 7967: REG=0x52,0x0003,0xFF
2023-10-14 [Sat] 03:36:19 8097: [KingstToCfg] line=0  offsetAddr=0x0003	dataStr=
2023-10-14 [Sat] 03:36:19 8337: REG=0x84,0x0000,0xC6
2023-10-14 [Sat] 03:36:19 8417: [KingstToCfg] line=0  offsetAddr=0x0000	dataStr=
2023-10-14 [Sat] 03:36:19 8597: REG=0xC6,0x0042,0x26
2023-10-14 [Sat] 03:36:19 8717: [KingstToCfg] line=0  offsetAddr=0x0042	dataStr=
2023-10-14 [Sat] 03:36:19 8917: REG=0xC6,0x0043,0x6C
2023-10-14 [Sat] 03:36:19 9027: [KingstToCfg] line=0  offsetAddr=0x0043	dataStr=
2023-10-14 [Sat] 03:36:19 9257: REG=0xC6,0x0044,0x00
2023-10-14 [Sat] 03:36:19 9388: [KingstToCfg] line=0  offsetAddr=0x0044	dataStr=
2023-10-14 [Sat] 03:36:19 9568: REG=0xC6,0x0045,0x00
2023-10-14 [Sat] 03:36:19 9718: [KingstToCfg] line=0  offsetAddr=0x0045	dataStr=
2023-10-14 [Sat] 03:36:19 9878: REG=0x52,0x0003,0xAA
2023-10-14 [Sat] 03:36:20 0028: [KingstToCfg] line=0  offsetAddr=0x0003	dataStr=
2023-10-14 [Sat] 03:36:20 0218: REG=0x52,0x0006,0xFF
2023-10-14 [Sat] 03:36:20 0368: [KingstToCfg] line=0  offsetAddr=0x0006	dataStr=
2023-10-14 [Sat] 03:36:20 0618: REG=0x52,0x032C,0x80
2023-10-14 [Sat] 03:36:20 0738: [KingstToCfg] line=0  offsetAddr=0x032C	dataStr=
2023-10-14 [Sat] 03:36:20 0938: REG=0x52,0x03D2,0x2E
2023-10-14 [Sat] 03:36:20 1078: [KingstToCfg] line=0  offsetAddr=0x03D2	dataStr=
2023-10-14 [Sat] 03:36:20 1318: REG=0x52,0x0316,0x80
2023-10-14 [Sat] 03:36:20 1448: [KingstToCfg] line=0  offsetAddr=0x0316	dataStr=
2023-10-14 [Sat] 03:36:20 1638: REG=0x52,0x03BB,0x27
2023-10-14 [Sat] 03:36:20 1788: [KingstToCfg] line=0  offsetAddr=0x03BB	dataStr=
2023-10-14 [Sat] 03:36:20 1968: REG=0x52,0x08A9,0xC8
2023-10-14 [Sat] 03:36:20 2138: [KingstToCfg] line=0  offsetAddr=0x08A9	dataStr=
2023-10-14 [Sat] 03:36:20 2328: REG=0x52,0x0903,0x81
2023-10-14 [Sat] 03:36:20 2448: [KingstToCfg] line=0  offsetAddr=0x0903	dataStr=
2023-10-14 [Sat] 03:36:20 2648: REG=0x52,0x0943,0x81
2023-10-14 [Sat] 03:36:20 2782: [KingstToCfg] line=0  offsetAddr=0x0943	dataStr=
2023-10-14 [Sat] 03:36:20 2992: REG=0x52,0x0983,0x81
2023-10-14 [Sat] 03:36:20 3152: [KingstToCfg] line=0  offsetAddr=0x0983	dataStr=
2023-10-14 [Sat] 03:36:20 3322: REG=0x52,0x09C3,0x81
2023-10-14 [Sat] 03:36:20 3442: [KingstToCfg] line=0  offsetAddr=0x09C3	dataStr=
2023-10-14 [Sat] 03:36:20 3862: REG=0xC6,0x0002,0x43
2023-10-14 [Sat] 03:36:20 3872: [KingstToCfg] line=0  offsetAddr=0x0002	dataStr=
2023-10-14 [Sat] 03:36:20 4189: REG=0xC6,0x0330,0x00
2023-10-14 [Sat] 03:36:20 4349: [KingstToCfg] line=0  offsetAddr=0x0330	dataStr=
2023-10-14 [Sat] 03:36:20 4609: REG=0xC6,0x0331,0x33
2023-10-14 [Sat] 03:36:20 4759: [KingstToCfg] line=0  offsetAddr=0x0331	dataStr=
2023-10-14 [Sat] 03:36:20 4978: REG=0xC6,0x0332,0xEE
2023-10-14 [Sat] 03:36:20 5128: [KingstToCfg] line=0  offsetAddr=0x0332	dataStr=
2023-10-14 [Sat] 03:36:20 5318: REG=0xC6,0x0333,0xE4
2023-10-14 [Sat] 03:36:20 5438: [KingstToCfg] line=0  offsetAddr=0x0333	dataStr=
2023-10-14 [Sat] 03:36:20 5678: REG=0xC6,0x0308,0x64
2023-10-14 [Sat] 03:36:20 5808: [KingstToCfg] line=0  offsetAddr=0x0308	dataStr=
2023-10-14 [Sat] 03:36:20 6038: REG=0xC6,0x0311,0x40
2023-10-14 [Sat] 03:36:20 6158: [KingstToCfg] line=0  offsetAddr=0x0311	dataStr=
2023-10-14 [Sat] 03:36:20 6348: REG=0xC6,0x0318,0x6D
2023-10-14 [Sat] 03:36:20 6468: [KingstToCfg] line=0  offsetAddr=0x0318	dataStr=
2023-10-14 [Sat] 03:36:20 6638: REG=0xC6,0x02D3,0x84
2023-10-14 [Sat] 03:36:20 6788: [KingstToCfg] line=0  offsetAddr=0x02D3	dataStr=
2023-10-14 [Sat] 03:36:20 6988: REG=0xC6,0x02CD,0x83
2023-10-14 [Sat] 03:36:20 7128: [KingstToCfg] line=0  offsetAddr=0x02CD	dataStr=
2023-10-14 [Sat] 03:36:20 7338: REG=0xC6,0x02CE,0x8E
2023-10-14 [Sat] 03:36:20 7488: [KingstToCfg] line=0  offsetAddr=0x02CE	dataStr=
2023-10-14 [Sat] 03:36:20 7698: REG=0xC6,0x02D0,0x83
2023-10-14 [Sat] 03:36:20 7848: [KingstToCfg] line=0  offsetAddr=0x02D0	dataStr=
2023-10-14 [Sat] 03:36:20 8066: REG=0xC6,0x02D1,0x87
2023-10-14 [Sat] 03:36:20 8246: [KingstToCfg] line=0  offsetAddr=0x02D1	dataStr=
2023-10-14 [Sat] 03:36:20 8476: REG=0x6C,0x0103,0x01
2023-10-14 [Sat] 03:36:20 8596: [KingstToCfg] line=0  offsetAddr=0x0103	dataStr=
2023-10-14 [Sat] 03:36:20 8816: REG=0x6C,0x0107,0x01
2023-10-14 [Sat] 03:36:20 8976: [KingstToCfg] line=0  offsetAddr=0x0107	dataStr=
2023-10-14 [Sat] 03:36:20 9156: REG=0x6C,0x3208,0x04
2023-10-14 [Sat] 03:36:20 9276: [KingstToCfg] line=0  offsetAddr=0x3208	dataStr=
2023-10-14 [Sat] 03:36:20 9456: REG=0x6C,0x300A,0x04
2023-10-14 [Sat] 03:36:20 9566: [KingstToCfg] line=0  offsetAddr=0x300A	dataStr=
2023-10-14 [Sat] 03:36:20 9786: REG=0x6C,0x4620,0x04
2023-10-14 [Sat] 03:36:20 9896: [KingstToCfg] line=0  offsetAddr=0x4620	dataStr=
2023-10-14 [Sat] 03:36:21 0116: REG=0x6C,0x4D56,0x04
2023-10-14 [Sat] 03:36:21 0246: [KingstToCfg] line=0  offsetAddr=0x4D56	dataStr=
2023-10-14 [Sat] 03:36:21 0396: REG=0x66,0x1904,0x0A
2023-10-14 [Sat] 03:36:21 0506: [KingstToCfg] line=0  offsetAddr=0x1904	dataStr=
2023-10-14 [Sat] 03:36:21 0676: REG=0x6C,0x3208,0x02
2023-10-14 [Sat] 03:36:21 0806: [KingstToCfg] line=0  offsetAddr=0x3208	dataStr=
2023-10-14 [Sat] 03:36:21 0976: REG=0x6C,0x4620,0x04
2023-10-14 [Sat] 03:36:21 1096: [KingstToCfg] line=0  offsetAddr=0x4620	dataStr=
2023-10-14 [Sat] 03:36:21 1263: REG=0x6C,0x3208,0x15
2023-10-14 [Sat] 03:36:21 1353: [KingstToCfg] line=0  offsetAddr=0x3208	dataStr=
2023-10-14 [Sat] 03:36:21 1580: REG=0x6C,0x3208,0x02
2023-10-14 [Sat] 03:36:21 1670: [KingstToCfg] line=0  offsetAddr=0x3208	dataStr=
2023-10-14 [Sat] 03:36:21 1850: REG=0x36,0x1A03,0x00
2023-10-14 [Sat] 03:36:21 1980: [KingstToCfg] line=0  offsetAddr=0x1A03	dataStr=
2023-10-14 [Sat] 03:36:21 2150: REG=0x6C,0x3208,0x12
2023-10-14 [Sat] 03:36:21 2280: [KingstToCfg] line=0  offsetAddr=0x3208	dataStr=
2023-10-14 [Sat] 03:36:21 2490: REG=0x6C,0x3204,0x51
2023-10-14 [Sat] 03:36:21 2610: [KingstToCfg] line=0  offsetAddr=0x3204	dataStr=
2023-10-14 [Sat] 03:36:21 2800: REG=0x6C,0x0305,0x5C
2023-10-14 [Sat] 03:36:21 2930: [KingstToCfg] line=0  offsetAddr=0x0305	dataStr=
2023-10-14 [Sat] 03:36:21 3160: REG=0x6C,0x0316,0x00
2023-10-14 [Sat] 03:36:21 3250: [KingstToCfg] line=0  offsetAddr=0x0316	dataStr=
2023-10-14 [Sat] 03:36:21 3400: REG=0x6C,0x0317,0x00
2023-10-14 [Sat] 03:36:21 3540: [KingstToCfg] line=0  offsetAddr=0x0317	dataStr=
2023-10-14 [Sat] 03:36:21 3740: REG=0x6C,0x0318,0x00
2023-10-14 [Sat] 03:36:21 3840: [KingstToCfg] line=0  offsetAddr=0x0318	dataStr=
2023-10-14 [Sat] 03:36:21 4017: REG=0x6C,0x0320,0x02
2023-10-14 [Sat] 03:36:21 4127: [KingstToCfg] line=0  offsetAddr=0x0320	dataStr=
2023-10-14 [Sat] 03:36:21 4337: REG=0x6C,0x0321,0x33
2023-10-14 [Sat] 03:36:21 4457: [KingstToCfg] line=0  offsetAddr=0x0321	dataStr=
2023-10-14 [Sat] 03:36:21 4637: REG=0x6C,0x0325,0x95
2023-10-14 [Sat] 03:36:21 4737: [KingstToCfg] line=0  offsetAddr=0x0325	dataStr=
2023-10-14 [Sat] 03:36:21 4907: REG=0x6C,0x0408,0xE7
2023-10-14 [Sat] 03:36:21 5027: [KingstToCfg] line=0  offsetAddr=0x0408	dataStr=
2023-10-14 [Sat] 03:36:21 5197: REG=0x6C,0x0409,0xFF
2023-10-14 [Sat] 03:36:21 5337: [KingstToCfg] line=0  offsetAddr=0x0409	dataStr=
2023-10-14 [Sat] 03:36:21 5517: REG=0x6C,0x040A,0x2B
2023-10-14 [Sat] 03:36:21 5627: [KingstToCfg] line=0  offsetAddr=0x040A	dataStr=
2023-10-14 [Sat] 03:36:21 5837: REG=0x6C,0x040B,0x32
2023-10-14 [Sat] 03:36:21 5937: [KingstToCfg] line=0  offsetAddr=0x040B	dataStr=
2023-10-14 [Sat] 03:36:21 6107: REG=0x6C,0x040C,0x28
2023-10-14 [Sat] 03:36:21 6237: [KingstToCfg] line=0  offsetAddr=0x040C	dataStr=
2023-10-14 [Sat] 03:36:21 6397: REG=0x6C,0x040D,0x5A
2023-10-14 [Sat] 03:36:21 6537: [KingstToCfg] line=0  offsetAddr=0x040D	dataStr=
2023-10-14 [Sat] 03:36:21 6727: REG=0x6C,0x040E,0x0C
2023-10-14 [Sat] 03:36:21 6837: [KingstToCfg] line=0  offsetAddr=0x040E	dataStr=
2023-10-14 [Sat] 03:36:21 7037: REG=0x6C,0x3002,0xF8
2023-10-14 [Sat] 03:36:21 7167: [KingstToCfg] line=0  offsetAddr=0x3002	dataStr=
2023-10-14 [Sat] 03:36:21 7327: REG=0x6C,0x3012,0x41
2023-10-14 [Sat] 03:36:21 7427: [KingstToCfg] line=0  offsetAddr=0x3012	dataStr=
2023-10-14 [Sat] 03:36:21 8031: REG=0x6C,0x2803,0xFE
2023-10-14 [Sat] 03:36:21 8181: [KingstToCfg] line=0  offsetAddr=0x2803	dataStr=
2023-10-14 [Sat] 03:36:21 8331: REG=0x6C,0x280B,0x00
2023-10-14 [Sat] 03:36:21 8461: [KingstToCfg] line=0  offsetAddr=0x280B	dataStr=
2023-10-14 [Sat] 03:36:21 8631: REG=0x6C,0x280C,0x79
2023-10-14 [Sat] 03:36:21 8791: [KingstToCfg] line=0  offsetAddr=0x280C	dataStr=
2023-10-14 [Sat] 03:36:21 9021: REG=0x6C,0x3700,0x19
2023-10-14 [Sat] 03:36:21 9141: [KingstToCfg] line=0  offsetAddr=0x3700	dataStr=
2023-10-14 [Sat] 03:36:21 9361: REG=0x6C,0x3703,0x43
2023-10-14 [Sat] 03:36:21 9481: [KingstToCfg] line=0  offsetAddr=0x3703	dataStr=
2023-10-14 [Sat] 03:36:21 9661: REG=0x6C,0x3705,0x00
2023-10-14 [Sat] 03:36:21 9771: [KingstToCfg] line=0  offsetAddr=0x3705	dataStr=0x360x1B0x030x1B
2023-10-14 [Sat] 03:36:21 9931: REG=0x6C,0x3705,0x36
2023-10-14 [Sat] 03:36:22 0091: [KingstToCfg] line=1  offsetAddr=0x3706	dataStr=0x1B0x030x1B
2023-10-14 [Sat] 03:36:22 0251: REG=0x6C,0x3706,0x1B
2023-10-14 [Sat] 03:36:22 0441: [KingstToCfg] line=2  offsetAddr=0x3708	dataStr=0x030x1B
2023-10-14 [Sat] 03:36:22 0621: REG=0x6C,0x3708,0x03
2023-10-14 [Sat] 03:36:22 0761: [KingstToCfg] line=3  offsetAddr=0x370B	dataStr=0x1B
2023-10-14 [Sat] 03:36:22 0931: REG=0x6C,0x370B,0x1B
2023-10-14 [Sat] 03:36:22 1101: [KingstToCfg] line=4  offsetAddr=0x370F	dataStr=
2023-10-14 [Sat] 03:41:53 7921: REG=0x90,0x0001,0x02
2023-10-14 [Sat] 03:41:53 7931: [KingstToCfg] line=1  offsetAddr=0x0002	dataStr=
2023-10-14 [Sat] 03:41:53 8141: REG=0x90,0x0051,0x02
2023-10-14 [Sat] 03:41:53 8271: [KingstToCfg] line=1  offsetAddr=0x0052	dataStr=
2023-10-14 [Sat] 03:41:53 8461: REG=0x90,0x0052,0x01
2023-10-14 [Sat] 03:41:53 8581: [KingstToCfg] line=1  offsetAddr=0x0053	dataStr=
2023-10-14 [Sat] 03:41:53 8761: REG=0x90,0x0320,0x2A
2023-10-14 [Sat] 03:41:53 8921: [KingstToCfg] line=1  offsetAddr=0x0321	dataStr=
2023-10-14 [Sat] 03:41:53 9111: REG=0x90,0x02C5,0x83
2023-10-14 [Sat] 03:41:53 9221: [KingstToCfg] line=1  offsetAddr=0x02C6	dataStr=
2023-10-14 [Sat] 03:41:53 9411: REG=0x90,0x02C6,0xA8
2023-10-14 [Sat] 03:41:53 9531: [KingstToCfg] line=1  offsetAddr=0x02C7	dataStr=
2023-10-14 [Sat] 03:41:53 9701: REG=0x84,0x0318,0x6D
2023-10-14 [Sat] 03:41:53 9861: [KingstToCfg] line=1  offsetAddr=0x0319	dataStr=
2023-10-14 [Sat] 03:41:54 0031: REG=0x84,0x0000,0xC8
2023-10-14 [Sat] 03:41:54 0191: [KingstToCfg] line=1  offsetAddr=0x0001	dataStr=
2023-10-14 [Sat] 03:41:54 0391: REG=0x90,0x0000,0xD8
2023-10-14 [Sat] 03:41:54 0501: [KingstToCfg] line=1  offsetAddr=0x0001	dataStr=
2023-10-14 [Sat] 03:41:54 0811: REG=0x52,0x040B,0x00
2023-10-14 [Sat] 03:41:54 0831: [KingstToCfg] line=1  offsetAddr=0x040C	dataStr=
2023-10-14 [Sat] 03:41:54 1011: REG=0x52,0x08A0,0x04
2023-10-14 [Sat] 03:41:54 1141: [KingstToCfg] line=1  offsetAddr=0x08A1	dataStr=
2023-10-14 [Sat] 03:41:54 1351: REG=0x52,0x0010,0x11
2023-10-14 [Sat] 03:41:54 1551: [KingstToCfg] line=1  offsetAddr=0x0011	dataStr=
2023-10-14 [Sat] 03:41:54 1721: REG=0x52,0x0011,0x21
2023-10-14 [Sat] 03:41:54 1861: [KingstToCfg] line=1  offsetAddr=0x0012	dataStr=
2023-10-14 [Sat] 03:41:54 2061: REG=0x52,0x008C,0x87
2023-10-14 [Sat] 03:41:54 2191: [KingstToCfg] line=1  offsetAddr=0x008D	dataStr=
2023-10-14 [Sat] 03:41:54 2381: REG=0x52,0x0006,0xFF
2023-10-14 [Sat] 03:41:54 2531: [KingstToCfg] line=1  offsetAddr=0x0007	dataStr=
2023-10-14 [Sat] 03:41:54 2721: REG=0x52,0x040B,0x00
2023-10-14 [Sat] 03:41:54 2889: [KingstToCfg] line=1  offsetAddr=0x040C	dataStr=
2023-10-14 [Sat] 03:41:54 3039: REG=0x52,0x06C2,0x10
2023-10-14 [Sat] 03:41:54 3179: [KingstToCfg] line=1  offsetAddr=0x06C3	dataStr=
2023-10-14 [Sat] 03:41:54 3379: REG=0x52,0x14D1,0x03
2023-10-14 [Sat] 03:41:54 3489: [KingstToCfg] line=1  offsetAddr=0x14D2	dataStr=
2023-10-14 [Sat] 03:41:54 3679: REG=0x52,0x15D1,0x03
2023-10-14 [Sat] 03:41:54 3829: [KingstToCfg] line=1  offsetAddr=0x15D2	dataStr=
2023-10-14 [Sat] 03:41:54 4009: REG=0x52,0x16D1,0x03
2023-10-14 [Sat] 03:41:54 4159: [KingstToCfg] line=1  offsetAddr=0x16D2	dataStr=
2023-10-14 [Sat] 03:41:54 4349: REG=0x52,0x17D1,0x03
2023-10-14 [Sat] 03:41:54 4489: [KingstToCfg] line=1  offsetAddr=0x17D2	dataStr=
2023-10-14 [Sat] 03:41:54 4659: REG=0x52,0x0006,0xFF
2023-10-14 [Sat] 03:41:54 4779: [KingstToCfg] line=1  offsetAddr=0x0007	dataStr=
2023-10-14 [Sat] 03:41:54 4978: REG=0x52,0x00F0,0x62
2023-10-14 [Sat] 03:41:54 5128: [KingstToCfg] line=1  offsetAddr=0x00F1	dataStr=
2023-10-14 [Sat] 03:41:54 5308: REG=0x52,0x00F1,0xEA
2023-10-14 [Sat] 03:41:54 5438: [KingstToCfg] line=1  offsetAddr=0x00F2	dataStr=
2023-10-14 [Sat] 03:41:54 5628: REG=0x52,0x00F4,0x0F
2023-10-14 [Sat] 03:41:54 5748: [KingstToCfg] line=1  offsetAddr=0x00F5	dataStr=
2023-10-14 [Sat] 03:41:54 5938: REG=0x52,0x0106,0x0A
2023-10-14 [Sat] 03:41:54 6068: [KingstToCfg] line=1  offsetAddr=0x0107	dataStr=
2023-10-14 [Sat] 03:41:54 6308: REG=0x52,0x012A,0x0A
2023-10-14 [Sat] 03:41:54 6408: [KingstToCfg] line=1  offsetAddr=0x012B	dataStr=
2023-10-14 [Sat] 03:41:54 6568: REG=0x52,0x00CF,0x42
2023-10-14 [Sat] 03:41:54 6728: [KingstToCfg] line=1  offsetAddr=0x00D0	dataStr=
2023-10-14 [Sat] 03:41:54 6918: REG=0x52,0x090B,0x07
2023-10-14 [Sat] 03:41:54 7038: [KingstToCfg] line=1  offsetAddr=0x090C	dataStr=
2023-10-14 [Sat] 03:41:54 7198: REG=0x52,0x092D,0x15
2023-10-14 [Sat] 03:41:54 7358: [KingstToCfg] line=1  offsetAddr=0x092E	dataStr=
2023-10-14 [Sat] 03:41:54 7598: REG=0x52,0x090D,0x2D
2023-10-14 [Sat] 03:41:54 7708: [KingstToCfg] line=1  offsetAddr=0x090E	dataStr=
2023-10-14 [Sat] 03:41:54 7868: REG=0x52,0x090E,0x2D
2023-10-14 [Sat] 03:41:54 8018: [KingstToCfg] line=1  offsetAddr=0x090F	dataStr=
2023-10-14 [Sat] 03:41:54 8298: REG=0x52,0x090F,0x00
2023-10-14 [Sat] 03:41:54 8348: [KingstToCfg] line=1  offsetAddr=0x0910	dataStr=
2023-10-14 [Sat] 03:41:54 8528: REG=0x52,0x0910,0x00
2023-10-14 [Sat] 03:41:54 8688: [KingstToCfg] line=1  offsetAddr=0x0911	dataStr=
2023-10-14 [Sat] 03:41:54 8908: REG=0x52,0x0911,0x01
2023-10-14 [Sat] 03:41:54 9008: [KingstToCfg] line=1  offsetAddr=0x0912	dataStr=
2023-10-14 [Sat] 03:41:54 9218: REG=0x52,0x0912,0x01
2023-10-14 [Sat] 03:41:54 9328: [KingstToCfg] line=1  offsetAddr=0x0913	dataStr=
2023-10-14 [Sat] 03:41:54 9548: REG=0x52,0x094B,0x07
2023-10-14 [Sat] 03:41:54 9628: [KingstToCfg] line=1  offsetAddr=0x094C	dataStr=
2023-10-14 [Sat] 03:41:54 9812: REG=0x52,0x096D,0x15
2023-10-14 [Sat] 03:41:54 9962: [KingstToCfg] line=1  offsetAddr=0x096E	dataStr=
2023-10-14 [Sat] 03:41:55 0142: REG=0x52,0x094D,0x2D
2023-10-14 [Sat] 03:41:55 0262: [KingstToCfg] line=1  offsetAddr=0x094E	dataStr=
2023-10-14 [Sat] 03:41:55 0422: REG=0x52,0x094E,0x6D
2023-10-14 [Sat] 03:41:55 0542: [KingstToCfg] line=1  offsetAddr=0x094F	dataStr=
2023-10-14 [Sat] 03:41:55 0782: REG=0x52,0x0950,0x40
2023-10-14 [Sat] 03:41:55 0883: [KingstToCfg] line=1  offsetAddr=0x0951	dataStr=
2023-10-14 [Sat] 03:41:55 1112: REG=0x52,0x0951,0x01
2023-10-14 [Sat] 03:41:55 1203: [KingstToCfg] line=1  offsetAddr=0x0952	dataStr=
2023-10-14 [Sat] 03:41:55 1382: REG=0x52,0x0952,0x41
2023-10-14 [Sat] 03:41:55 1493: [KingstToCfg] line=1  offsetAddr=0x0953	dataStr=
2023-10-14 [Sat] 03:41:55 1673: REG=0x52,0x0952,0xA9
2023-10-14 [Sat] 03:41:55 1793: [KingstToCfg] line=1  offsetAddr=0x0953	dataStr=0xFF
2023-10-14 [Sat] 03:41:55 1943: REG=0x52,0x0953,0xFF
2023-10-14 [Sat] 03:41:55 2113: [KingstToCfg] line=2  offsetAddr=0x0955	dataStr=
2023-10-14 [Sat] 03:41:55 2293: REG=0x52,0x098B,0x07
2023-10-14 [Sat] 03:41:55 2413: [KingstToCfg] line=1  offsetAddr=0x098C	dataStr=
2023-10-14 [Sat] 03:41:55 2613: REG=0x52,0x09AD,0x15
2023-10-14 [Sat] 03:41:55 2761: [KingstToCfg] line=1  offsetAddr=0x09AE	dataStr=
2023-10-14 [Sat] 03:41:55 2961: REG=0x52,0x098D,0x2D
2023-10-14 [Sat] 03:41:55 3071: [KingstToCfg] line=1  offsetAddr=0x098E	dataStr=
2023-10-14 [Sat] 03:41:55 3261: REG=0x52,0x098E,0xAD
2023-10-14 [Sat] 03:41:55 3391: [KingstToCfg] line=1  offsetAddr=0x098F	dataStr=
2023-10-14 [Sat] 03:41:55 3601: REG=0x52,0x098F,0x00
2023-10-14 [Sat] 03:41:55 3691: [KingstToCfg] line=1  offsetAddr=0x0990	dataStr=
2023-10-14 [Sat] 03:41:55 3931: REG=0x52,0x0990,0x80
2023-10-14 [Sat] 03:41:55 4061: [KingstToCfg] line=1  offsetAddr=0x0991	dataStr=
2023-10-14 [Sat] 03:41:55 4321: REG=0x52,0x0991,0x01
2023-10-14 [Sat] 03:41:55 4391: [KingstToCfg] line=1  offsetAddr=0x0992	dataStr=
2023-10-14 [Sat] 03:41:55 4581: REG=0x52,0x0992,0x81
2023-10-14 [Sat] 03:41:55 4701: [KingstToCfg] line=1  offsetAddr=0x0993	dataStr=
2023-10-14 [Sat] 03:41:55 4941: REG=0x52,0x09CB,0x07
2023-10-14 [Sat] 03:41:55 5011: [KingstToCfg] line=1  offsetAddr=0x09CC	dataStr=
2023-10-14 [Sat] 03:41:55 5201: REG=0x52,0x09ED,0x15
2023-10-14 [Sat] 03:41:55 5321: [KingstToCfg] line=1  offsetAddr=0x09EE	dataStr=
2023-10-14 [Sat] 03:41:55 5481: REG=0x52,0x09CD,0x2D
2023-10-14 [Sat] 03:41:55 5601: [KingstToCfg] line=1  offsetAddr=0x09CE	dataStr=
2023-10-14 [Sat] 03:41:55 5841: REG=0x52,0x09CE,0xED
2023-10-14 [Sat] 03:41:55 5941: [KingstToCfg] line=1  offsetAddr=0x09CF	dataStr=
2023-10-14 [Sat] 03:41:55 6173: REG=0x52,0x09CF,0x00
2023-10-14 [Sat] 03:41:55 6293: [KingstToCfg] line=1  offsetAddr=0x09D0	dataStr=
2023-10-14 [Sat] 03:41:55 6483: REG=0x52,0x09D0,0xC0
2023-10-14 [Sat] 03:41:55 6623: [KingstToCfg] line=1  offsetAddr=0x09D1	dataStr=
2023-10-14 [Sat] 03:41:55 6843: REG=0x52,0x09D1,0x01
2023-10-14 [Sat] 03:41:55 6923: [KingstToCfg] line=1  offsetAddr=0x09D2	dataStr=
2023-10-14 [Sat] 03:41:55 7153: REG=0x52,0x09D2,0xC1
2023-10-14 [Sat] 03:41:55 7273: [KingstToCfg] line=1  offsetAddr=0x09D3	dataStr=
2023-10-14 [Sat] 03:41:55 7514: REG=0x52,0x08A0,0x04
2023-10-14 [Sat] 03:41:55 7574: [KingstToCfg] line=1  offsetAddr=0x08A1	dataStr=
2023-10-14 [Sat] 03:41:55 7774: REG=0x52,0x08A3,0xE4
2023-10-14 [Sat] 03:41:55 7894: [KingstToCfg] line=1  offsetAddr=0x08A4	dataStr=
2023-10-14 [Sat] 03:41:55 8076: REG=0x52,0x08A4,0xE4
2023-10-14 [Sat] 03:41:55 8247: [KingstToCfg] line=1  offsetAddr=0x08A5	dataStr=
2023-10-14 [Sat] 03:41:55 9179: REG=0x52,0x090A,0xC0
2023-10-14 [Sat] 03:41:55 9319: [KingstToCfg] line=1  offsetAddr=0x090B	dataStr=
2023-10-14 [Sat] 03:41:55 9509: REG=0x52,0x094A,0xC0
2023-10-14 [Sat] 03:41:55 9619: [KingstToCfg] line=1  offsetAddr=0x094B	dataStr=
2023-10-14 [Sat] 03:41:55 9779: REG=0x52,0x098A,0xC0
2023-10-14 [Sat] 03:41:55 9899: [KingstToCfg] line=1  offsetAddr=0x098B	dataStr=
2023-10-14 [Sat] 03:41:56 0099: REG=0x52,0x09E5,0xE0
2023-10-14 [Sat] 03:41:56 0249: [KingstToCfg] line=1  offsetAddr=0x09E6	dataStr=
2023-10-14 [Sat] 03:41:56 0419: REG=0x52,0x08A2,0xF6
2023-10-14 [Sat] 03:41:56 0549: [KingstToCfg] line=1  offsetAddr=0x08A3	dataStr=
2023-10-14 [Sat] 03:41:56 0759: REG=0x52,0x1D00,0xF4
2023-10-14 [Sat] 03:41:56 0899: [KingstToCfg] line=1  offsetAddr=0x1D01	dataStr=
2023-10-14 [Sat] 03:41:56 1067: REG=0x52,0x0F80,0xFA
2023-10-14 [Sat] 03:41:56 1187: [KingstToCfg] line=1  offsetAddr=0x0F81	dataStr=
2023-10-14 [Sat] 03:41:56 1347: REG=0x52,0x1F00,0xF4
2023-10-14 [Sat] 03:41:56 1467: [KingstToCfg] line=1  offsetAddr=0x1F01	dataStr=
2023-10-14 [Sat] 03:41:56 1627: REG=0x52,0x0415,0x3C
2023-10-14 [Sat] 03:41:56 1737: [KingstToCfg] line=1  offsetAddr=0x0416	dataStr=
2023-10-14 [Sat] 03:41:56 1927: REG=0x52,0x0418,0x38
2023-10-14 [Sat] 03:41:56 2077: [KingstToCfg] line=1  offsetAddr=0x0419	dataStr=
2023-10-14 [Sat] 03:41:56 2267: REG=0x52,0x041B,0x9C
2023-10-14 [Sat] 03:41:56 2407: [KingstToCfg] line=1  offsetAddr=0x041C	dataStr=
2023-10-14 [Sat] 03:41:56 2587: REG=0x52,0x041F,0x9C
2023-10-14 [Sat] 03:41:56 2707: [KingstToCfg] line=1  offsetAddr=0x0420	dataStr=
2023-10-14 [Sat] 03:41:56 2877: REG=0x52,0x1C00,0xF5
2023-10-14 [Sat] 03:41:56 2985: [KingstToCfg] line=1  offsetAddr=0x1C01	dataStr=
2023-10-14 [Sat] 03:41:56 3175: REG=0x52,0x1D00,0xF5
2023-10-14 [Sat] 03:41:56 3315: [KingstToCfg] line=1  offsetAddr=0x1D01	dataStr=
2023-10-14 [Sat] 03:41:56 3495: REG=0x52,0x1E00,0xF5
2023-10-14 [Sat] 03:41:56 3645: [KingstToCfg] line=1  offsetAddr=0x1E01	dataStr=
2023-10-14 [Sat] 03:41:56 3815: REG=0x52,0x1F00,0xF5
2023-10-14 [Sat] 03:41:56 3965: [KingstToCfg] line=1  offsetAddr=0x1F01	dataStr=
2023-10-14 [Sat] 03:41:56 4218: REG=0x52,0x0001,0xCC
2023-10-14 [Sat] 03:41:56 4318: [KingstToCfg] line=1  offsetAddr=0x0002	dataStr=
2023-10-14 [Sat] 03:41:56 4478: REG=0x52,0x0049,0x3F
2023-10-14 [Sat] 03:41:56 4618: [KingstToCfg] line=1  offsetAddr=0x004A	dataStr=
2023-10-14 [Sat] 03:41:56 4838: REG=0x52,0x0003,0xFF
2023-10-14 [Sat] 03:41:56 4918: [KingstToCfg] line=1  offsetAddr=0x0004	dataStr=
2023-10-14 [Sat] 03:41:56 5198: REG=0x84,0x0000,0xC6
2023-10-14 [Sat] 03:41:56 5258: [KingstToCfg] line=1  offsetAddr=0x0001	dataStr=
2023-10-14 [Sat] 03:41:56 5428: REG=0xC6,0x0042,0x26
2023-10-14 [Sat] 03:41:56 5538: [KingstToCfg] line=1  offsetAddr=0x0043	dataStr=
2023-10-14 [Sat] 03:41:56 5718: REG=0xC6,0x0043,0x6C
2023-10-14 [Sat] 03:41:56 5848: [KingstToCfg] line=1  offsetAddr=0x0044	dataStr=
2023-10-14 [Sat] 03:41:56 6028: REG=0xC6,0x0044,0x00
2023-10-14 [Sat] 03:41:56 6148: [KingstToCfg] line=1  offsetAddr=0x0045	dataStr=
2023-10-14 [Sat] 03:41:56 6300: REG=0xC6,0x0045,0x00
2023-10-14 [Sat] 03:41:56 6430: [KingstToCfg] line=1  offsetAddr=0x0046	dataStr=
2023-10-14 [Sat] 03:41:56 6620: REG=0x52,0x0003,0xAA
2023-10-14 [Sat] 03:41:56 6740: [KingstToCfg] line=1  offsetAddr=0x0004	dataStr=
2023-10-14 [Sat] 03:41:56 6900: REG=0x52,0x0006,0xFF
2023-10-14 [Sat] 03:41:56 7030: [KingstToCfg] line=1  offsetAddr=0x0007	dataStr=
2023-10-14 [Sat] 03:41:56 7260: REG=0x52,0x032C,0x80
2023-10-14 [Sat] 03:41:56 7320: [KingstToCfg] line=1  offsetAddr=0x032D	dataStr=
2023-10-14 [Sat] 03:41:56 7500: REG=0x52,0x03D2,0x2E
2023-10-14 [Sat] 03:41:56 7651: [KingstToCfg] line=1  offsetAddr=0x03D3	dataStr=
2023-10-14 [Sat] 03:41:56 7820: REG=0x52,0x0316,0x80
2023-10-14 [Sat] 03:41:56 7951: [KingstToCfg] line=1  offsetAddr=0x0317	dataStr=
2023-10-14 [Sat] 03:41:56 8121: REG=0x52,0x03BB,0x27
2023-10-14 [Sat] 03:41:56 8281: [KingstToCfg] line=1  offsetAddr=0x03BC	dataStr=
2023-10-14 [Sat] 03:41:56 8441: REG=0x52,0x08A9,0xC8
2023-10-14 [Sat] 03:41:56 8591: [KingstToCfg] line=1  offsetAddr=0x08AA	dataStr=
2023-10-14 [Sat] 03:41:56 8771: REG=0x52,0x0903,0x81
2023-10-14 [Sat] 03:41:56 8901: [KingstToCfg] line=1  offsetAddr=0x0904	dataStr=
2023-10-14 [Sat] 03:41:56 9111: REG=0x52,0x0943,0x81
2023-10-14 [Sat] 03:41:56 9231: [KingstToCfg] line=1  offsetAddr=0x0944	dataStr=
2023-10-14 [Sat] 03:41:56 9421: REG=0x52,0x0983,0x81
2023-10-14 [Sat] 03:41:56 9561: [KingstToCfg] line=1  offsetAddr=0x0984	dataStr=
2023-10-14 [Sat] 03:41:56 9751: REG=0x52,0x09C3,0x81
2023-10-14 [Sat] 03:41:56 9871: [KingstToCfg] line=1  offsetAddr=0x09C4	dataStr=
2023-10-14 [Sat] 03:41:57 0241: REG=0xC6,0x0002,0x43
2023-10-14 [Sat] 03:41:57 0251: [KingstToCfg] line=1  offsetAddr=0x0003	dataStr=
2023-10-14 [Sat] 03:41:57 0411: REG=0xC6,0x0330,0x00
2023-10-14 [Sat] 03:41:57 0521: [KingstToCfg] line=1  offsetAddr=0x0331	dataStr=
2023-10-14 [Sat] 03:41:57 0671: REG=0xC6,0x0331,0x33
2023-10-14 [Sat] 03:41:57 0791: [KingstToCfg] line=1  offsetAddr=0x0332	dataStr=
2023-10-14 [Sat] 03:41:57 0991: REG=0xC6,0x0332,0xEE
2023-10-14 [Sat] 03:41:57 1111: [KingstToCfg] line=1  offsetAddr=0x0333	dataStr=
2023-10-14 [Sat] 03:41:57 1291: REG=0xC6,0x0333,0xE4
2023-10-14 [Sat] 03:41:57 1421: [KingstToCfg] line=1  offsetAddr=0x0334	dataStr=
2023-10-14 [Sat] 03:41:57 1601: REG=0xC6,0x0308,0x64
2023-10-14 [Sat] 03:41:57 1741: [KingstToCfg] line=1  offsetAddr=0x0309	dataStr=
2023-10-14 [Sat] 03:41:57 2553: REG=0xC6,0x0311,0x40
2023-10-14 [Sat] 03:41:57 2693: [KingstToCfg] line=1  offsetAddr=0x0312	dataStr=
2023-10-14 [Sat] 03:41:57 2913: REG=0xC6,0x0318,0x6D
2023-10-14 [Sat] 03:41:57 3014: [KingstToCfg] line=1  offsetAddr=0x0319	dataStr=
2023-10-14 [Sat] 03:41:57 3164: REG=0xC6,0x02D3,0x84
2023-10-14 [Sat] 03:41:57 3314: [KingstToCfg] line=1  offsetAddr=0x02D4	dataStr=
2023-10-14 [Sat] 03:41:57 3484: REG=0xC6,0x02CD,0x83
2023-10-14 [Sat] 03:41:57 3594: [KingstToCfg] line=1  offsetAddr=0x02CE	dataStr=
2023-10-14 [Sat] 03:41:57 3784: REG=0xC6,0x02CE,0x8E
2023-10-14 [Sat] 03:41:57 3924: [KingstToCfg] line=1  offsetAddr=0x02CF	dataStr=
2023-10-14 [Sat] 03:41:57 4104: REG=0xC6,0x02D0,0x83
2023-10-14 [Sat] 03:41:57 4234: [KingstToCfg] line=1  offsetAddr=0x02D1	dataStr=
2023-10-14 [Sat] 03:41:57 4424: REG=0xC6,0x02D1,0x87
2023-10-14 [Sat] 03:41:57 4564: [KingstToCfg] line=1  offsetAddr=0x02D2	dataStr=
2023-10-14 [Sat] 03:41:57 4744: REG=0x6C,0x0103,0x01
2023-10-14 [Sat] 03:41:57 4864: [KingstToCfg] line=1  offsetAddr=0x0104	dataStr=
2023-10-14 [Sat] 03:41:57 5054: REG=0x6C,0x0107,0x01
2023-10-14 [Sat] 03:41:57 5184: [KingstToCfg] line=1  offsetAddr=0x0108	dataStr=
2023-10-14 [Sat] 03:41:57 5354: REG=0x6C,0x3208,0x04
2023-10-14 [Sat] 03:41:57 5484: [KingstToCfg] line=1  offsetAddr=0x3209	dataStr=
2023-10-14 [Sat] 03:41:57 5654: REG=0x6C,0x300A,0x04
2023-10-14 [Sat] 03:41:57 5764: [KingstToCfg] line=1  offsetAddr=0x300B	dataStr=
2023-10-14 [Sat] 03:41:57 5924: REG=0x6C,0x4620,0x04
2023-10-14 [Sat] 03:41:57 6034: [KingstToCfg] line=1  offsetAddr=0x4621	dataStr=
2023-10-14 [Sat] 03:41:57 6204: REG=0x6C,0x4D56,0x04
2023-10-14 [Sat] 03:41:57 6314: [KingstToCfg] line=1  offsetAddr=0x4D57	dataStr=
2023-10-14 [Sat] 03:41:57 6484: REG=0x66,0x1904,0x0A
2023-10-14 [Sat] 03:41:57 6584: [KingstToCfg] line=1  offsetAddr=0x1905	dataStr=
2023-10-14 [Sat] 03:41:57 6754: REG=0x6C,0x3208,0x02
2023-10-14 [Sat] 03:41:57 6884: [KingstToCfg] line=1  offsetAddr=0x3209	dataStr=
2023-10-14 [Sat] 03:41:57 7064: REG=0x6C,0x4620,0x04
2023-10-14 [Sat] 03:41:57 7204: [KingstToCfg] line=1  offsetAddr=0x4621	dataStr=
2023-10-14 [Sat] 03:41:57 7404: REG=0x6C,0x3208,0x15
2023-10-14 [Sat] 03:41:57 7544: [KingstToCfg] line=1  offsetAddr=0x3209	dataStr=
2023-10-14 [Sat] 03:41:57 7754: REG=0x6C,0x3208,0x02
2023-10-14 [Sat] 03:41:57 7894: [KingstToCfg] line=1  offsetAddr=0x3209	dataStr=
2023-10-14 [Sat] 03:41:57 8087: REG=0x36,0x1A03,0x00
2023-10-14 [Sat] 03:41:57 8247: [KingstToCfg] line=1  offsetAddr=0x1A04	dataStr=
2023-10-14 [Sat] 03:41:57 8507: REG=0x6C,0x3208,0x12
2023-10-14 [Sat] 03:41:57 8617: [KingstToCfg] line=1  offsetAddr=0x3209	dataStr=
2023-10-14 [Sat] 03:41:57 8827: REG=0x6C,0x3204,0x51
2023-10-14 [Sat] 03:41:57 8977: [KingstToCfg] line=1  offsetAddr=0x3205	dataStr=
2023-10-14 [Sat] 03:41:57 9157: REG=0x6C,0x0305,0x5C
2023-10-14 [Sat] 03:41:57 9257: [KingstToCfg] line=1  offsetAddr=0x0306	dataStr=
2023-10-14 [Sat] 03:41:57 9437: REG=0x6C,0x0316,0x00
2023-10-14 [Sat] 03:41:57 9557: [KingstToCfg] line=1  offsetAddr=0x0317	dataStr=
2023-10-14 [Sat] 03:41:57 9767: REG=0x6C,0x0317,0x00
2023-10-14 [Sat] 03:41:57 9877: [KingstToCfg] line=1  offsetAddr=0x0318	dataStr=
2023-10-14 [Sat] 03:41:58 0037: REG=0x6C,0x0318,0x00
2023-10-14 [Sat] 03:41:58 0157: [KingstToCfg] line=1  offsetAddr=0x0319	dataStr=
2023-10-14 [Sat] 03:41:58 0317: REG=0x6C,0x0320,0x02
2023-10-14 [Sat] 03:41:58 0457: [KingstToCfg] line=1  offsetAddr=0x0321	dataStr=
2023-10-14 [Sat] 03:41:58 0641: REG=0x6C,0x0321,0x33
2023-10-14 [Sat] 03:41:58 0791: [KingstToCfg] line=1  offsetAddr=0x0322	dataStr=
2023-10-14 [Sat] 03:41:58 1001: REG=0x6C,0x0325,0x95
2023-10-14 [Sat] 03:41:58 1121: [KingstToCfg] line=1  offsetAddr=0x0326	dataStr=
2023-10-14 [Sat] 03:41:58 1311: REG=0x6C,0x0408,0xE7
2023-10-14 [Sat] 03:41:58 1421: [KingstToCfg] line=1  offsetAddr=0x0409	dataStr=
2023-10-14 [Sat] 03:41:58 1631: REG=0x6C,0x0409,0xFF
2023-10-14 [Sat] 03:41:58 1761: [KingstToCfg] line=1  offsetAddr=0x040A	dataStr=
2023-10-14 [Sat] 03:41:58 1911: REG=0x6C,0x040A,0x2B
2023-10-14 [Sat] 03:41:58 2041: [KingstToCfg] line=1  offsetAddr=0x040B	dataStr=
2023-10-14 [Sat] 03:41:58 2261: REG=0x6C,0x040B,0x32
2023-10-14 [Sat] 03:41:58 2371: [KingstToCfg] line=1  offsetAddr=0x040C	dataStr=
2023-10-14 [Sat] 03:41:58 2551: REG=0x6C,0x040C,0x28
2023-10-14 [Sat] 03:41:58 2671: [KingstToCfg] line=1  offsetAddr=0x040D	dataStr=
2023-10-14 [Sat] 03:41:58 2861: REG=0x6C,0x040D,0x5A
2023-10-14 [Sat] 03:41:58 2981: [KingstToCfg] line=1  offsetAddr=0x040E	dataStr=
2023-10-14 [Sat] 03:41:58 3151: REG=0x6C,0x040E,0x0C
2023-10-14 [Sat] 03:41:58 3291: [KingstToCfg] line=1  offsetAddr=0x040F	dataStr=
2023-10-14 [Sat] 03:41:58 3481: REG=0x6C,0x3002,0xF8
2023-10-14 [Sat] 03:41:58 3601: [KingstToCfg] line=1  offsetAddr=0x3003	dataStr=
2023-10-14 [Sat] 03:41:58 3781: REG=0x6C,0x3012,0x41
2023-10-14 [Sat] 03:41:58 3931: [KingstToCfg] line=1  offsetAddr=0x3013	dataStr=
2023-10-14 [Sat] 03:41:58 4151: REG=0x6C,0x2803,0xFE
2023-10-14 [Sat] 03:41:58 4251: [KingstToCfg] line=1  offsetAddr=0x2804	dataStr=
2023-10-14 [Sat] 03:41:58 4411: REG=0x6C,0x280B,0x00
2023-10-14 [Sat] 03:41:58 4521: [KingstToCfg] line=1  offsetAddr=0x280C	dataStr=
2023-10-14 [Sat] 03:41:58 4701: REG=0x6C,0x280C,0x79
2023-10-14 [Sat] 03:41:58 4831: [KingstToCfg] line=1  offsetAddr=0x280D	dataStr=
2023-10-14 [Sat] 03:41:58 5051: REG=0x6C,0x3700,0x19
2023-10-14 [Sat] 03:41:58 5151: [KingstToCfg] line=1  offsetAddr=0x3701	dataStr=
2023-10-14 [Sat] 03:41:58 5331: REG=0x6C,0x3703,0x43
2023-10-14 [Sat] 03:41:58 5483: [KingstToCfg] line=1  offsetAddr=0x3704	dataStr=
2023-10-14 [Sat] 03:41:58 5673: REG=0x6C,0x3705,0x00
2023-10-14 [Sat] 03:41:58 5813: [KingstToCfg] line=1  offsetAddr=0x3706	dataStr=0x360x1B0x030x1B
2023-10-14 [Sat] 03:41:58 5953: REG=0x6C,0x3706,0x36
2023-10-14 [Sat] 03:41:58 6083: [KingstToCfg] line=2  offsetAddr=0x3708	dataStr=0x1B0x030x1B
2023-10-14 [Sat] 03:41:58 6223: REG=0x6C,0x3708,0x1B
2023-10-14 [Sat] 03:41:58 6373: [KingstToCfg] line=3  offsetAddr=0x370B	dataStr=0x030x1B
2023-10-14 [Sat] 03:41:58 6503: REG=0x6C,0x370B,0x03
2023-10-14 [Sat] 03:41:58 6663: [KingstToCfg] line=4  offsetAddr=0x370F	dataStr=0x1B
2023-10-14 [Sat] 03:41:58 6823: REG=0x6C,0x370F,0x1B
2023-10-14 [Sat] 03:41:58 6973: [KingstToCfg] line=5  offsetAddr=0x3714	dataStr=
2023-10-14 [Sat] 03:47:35 5717: REG=0x90,0x0001,0x02
2023-10-14 [Sat] 03:47:35 5737: [KingstToCfg] line=3  offsetAddr=0x0002	dataStr=
2023-10-14 [Sat] 03:47:35 5937: REG=0x90,0x0051,0x02
2023-10-14 [Sat] 03:47:35 6057: [KingstToCfg] line=4  offsetAddr=0x0052	dataStr=
2023-10-14 [Sat] 03:47:35 6277: REG=0x90,0x0052,0x01
2023-10-14 [Sat] 03:47:35 6407: [KingstToCfg] line=5  offsetAddr=0x0053	dataStr=
2023-10-14 [Sat] 03:47:35 6597: REG=0x90,0x0320,0x2A
2023-10-14 [Sat] 03:47:35 6747: [KingstToCfg] line=6  offsetAddr=0x0321	dataStr=
2023-10-14 [Sat] 03:47:35 6917: REG=0x90,0x02C5,0x83
2023-10-14 [Sat] 03:47:35 7057: [KingstToCfg] line=7  offsetAddr=0x02C6	dataStr=
2023-10-14 [Sat] 03:47:35 7207: REG=0x90,0x02C6,0xA8
2023-10-14 [Sat] 03:47:35 7367: [KingstToCfg] line=8  offsetAddr=0x02C7	dataStr=
2023-10-14 [Sat] 03:47:35 7557: REG=0x84,0x0318,0x6D
2023-10-14 [Sat] 03:47:35 7707: [KingstToCfg] line=9  offsetAddr=0x0319	dataStr=
2023-10-14 [Sat] 03:47:35 7867: REG=0x84,0x0000,0xC8
2023-10-14 [Sat] 03:47:35 8007: [KingstToCfg] line=10  offsetAddr=0x0001	dataStr=
2023-10-14 [Sat] 03:47:35 8187: REG=0x90,0x0000,0xD8
2023-10-14 [Sat] 03:47:35 8317: [KingstToCfg] line=11  offsetAddr=0x0001	dataStr=
2023-10-14 [Sat] 03:47:35 8627: REG=0x52,0x040B,0x00
2023-10-14 [Sat] 03:47:35 8647: [KingstToCfg] line=18  offsetAddr=0x040C	dataStr=
2023-10-14 [Sat] 03:47:35 8857: REG=0x52,0x08A0,0x04
2023-10-14 [Sat] 03:47:35 9007: [KingstToCfg] line=19  offsetAddr=0x08A1	dataStr=
2023-10-14 [Sat] 03:47:35 9147: REG=0x52,0x0010,0x11
2023-10-14 [Sat] 03:47:35 9307: [KingstToCfg] line=20  offsetAddr=0x0011	dataStr=
2023-10-14 [Sat] 03:47:35 9457: REG=0x52,0x0011,0x21
2023-10-14 [Sat] 03:47:35 9607: [KingstToCfg] line=21  offsetAddr=0x0012	dataStr=
2023-10-14 [Sat] 03:47:35 9777: REG=0x52,0x008C,0x87
2023-10-14 [Sat] 03:47:35 9937: [KingstToCfg] line=22  offsetAddr=0x008D	dataStr=
2023-10-14 [Sat] 03:47:36 0137: REG=0x52,0x0006,0xFF
2023-10-14 [Sat] 03:47:36 0307: [KingstToCfg] line=23  offsetAddr=0x0007	dataStr=
2023-10-14 [Sat] 03:47:36 0507: REG=0x52,0x040B,0x00
2023-10-14 [Sat] 03:47:36 0657: [KingstToCfg] line=24  offsetAddr=0x040C	dataStr=
2023-10-14 [Sat] 03:47:36 0847: REG=0x52,0x06C2,0x10
2023-10-14 [Sat] 03:47:36 0987: [KingstToCfg] line=25  offsetAddr=0x06C3	dataStr=
2023-10-14 [Sat] 03:47:36 1167: REG=0x52,0x14D1,0x03
2023-10-14 [Sat] 03:47:36 1297: [KingstToCfg] line=26  offsetAddr=0x14D2	dataStr=
2023-10-14 [Sat] 03:47:36 1477: REG=0x52,0x15D1,0x03
2023-10-14 [Sat] 03:47:36 1627: [KingstToCfg] line=27  offsetAddr=0x15D2	dataStr=
2023-10-14 [Sat] 03:47:36 1797: REG=0x52,0x16D1,0x03
2023-10-14 [Sat] 03:47:36 1907: [KingstToCfg] line=28  offsetAddr=0x16D2	dataStr=
2023-10-14 [Sat] 03:47:36 2071: REG=0x52,0x17D1,0x03
2023-10-14 [Sat] 03:47:36 2191: [KingstToCfg] line=29  offsetAddr=0x17D2	dataStr=
2023-10-14 [Sat] 03:47:36 2391: REG=0x52,0x0006,0xFF
2023-10-14 [Sat] 03:47:36 2501: [KingstToCfg] line=30  offsetAddr=0x0007	dataStr=
2023-10-14 [Sat] 03:47:36 2691: REG=0x52,0x00F0,0x62
2023-10-14 [Sat] 03:47:36 2841: [KingstToCfg] line=31  offsetAddr=0x00F1	dataStr=
2023-10-14 [Sat] 03:47:36 3031: REG=0x52,0x00F1,0xEA
2023-10-14 [Sat] 03:47:36 3151: [KingstToCfg] line=32  offsetAddr=0x00F2	dataStr=
2023-10-14 [Sat] 03:47:36 3311: REG=0x52,0x00F4,0x0F
2023-10-14 [Sat] 03:47:36 3431: [KingstToCfg] line=33  offsetAddr=0x00F5	dataStr=
2023-10-14 [Sat] 03:47:36 3591: REG=0x52,0x0106,0x0A
2023-10-14 [Sat] 03:47:36 3741: [KingstToCfg] line=34  offsetAddr=0x0107	dataStr=
2023-10-14 [Sat] 03:47:36 3988: REG=0x52,0x012A,0x0A
2023-10-14 [Sat] 03:47:36 4079: [KingstToCfg] line=36  offsetAddr=0x012B	dataStr=
2023-10-14 [Sat] 03:47:36 4269: REG=0x52,0x00CF,0x42
2023-10-14 [Sat] 03:47:36 4409: [KingstToCfg] line=37  offsetAddr=0x00D0	dataStr=
2023-10-14 [Sat] 03:47:36 4589: REG=0x52,0x090B,0x07
2023-10-14 [Sat] 03:47:36 4739: [KingstToCfg] line=38  offsetAddr=0x090C	dataStr=
2023-10-14 [Sat] 03:47:36 4889: REG=0x52,0x092D,0x15
2023-10-14 [Sat] 03:47:36 5029: [KingstToCfg] line=39  offsetAddr=0x092E	dataStr=
2023-10-14 [Sat] 03:47:36 5219: REG=0x52,0x090D,0x2D
2023-10-14 [Sat] 03:47:36 5359: [KingstToCfg] line=40  offsetAddr=0x090E	dataStr=
2023-10-14 [Sat] 03:47:36 5539: REG=0x52,0x090E,0x2D
2023-10-14 [Sat] 03:47:36 5679: [KingstToCfg] line=41  offsetAddr=0x090F	dataStr=
2023-10-14 [Sat] 03:47:36 5929: REG=0x52,0x090F,0x00
2023-10-14 [Sat] 03:47:36 5979: [KingstToCfg] line=44  offsetAddr=0x0910	dataStr=
2023-10-14 [Sat] 03:47:36 6159: REG=0x52,0x0910,0x00
2023-10-14 [Sat] 03:47:36 6309: [KingstToCfg] line=45  offsetAddr=0x0911	dataStr=
2023-10-14 [Sat] 03:47:36 6609: REG=0x52,0x0911,0x01
2023-10-14 [Sat] 03:47:36 6679: [KingstToCfg] line=48  offsetAddr=0x0912	dataStr=
2023-10-14 [Sat] 03:47:36 6819: REG=0x52,0x0912,0x01
2023-10-14 [Sat] 03:47:36 6969: [KingstToCfg] line=49  offsetAddr=0x0913	dataStr=
2023-10-14 [Sat] 03:47:36 7219: REG=0x52,0x094B,0x07
2023-10-14 [Sat] 03:47:36 7289: [KingstToCfg] line=52  offsetAddr=0x094C	dataStr=
2023-10-14 [Sat] 03:47:36 7479: REG=0x52,0x096D,0x15
2023-10-14 [Sat] 03:47:36 7589: [KingstToCfg] line=53  offsetAddr=0x096E	dataStr=
2023-10-14 [Sat] 03:47:36 7759: REG=0x52,0x094D,0x2D
2023-10-14 [Sat] 03:47:36 7879: [KingstToCfg] line=54  offsetAddr=0x094E	dataStr=
2023-10-14 [Sat] 03:47:36 8069: REG=0x52,0x094E,0x6D
2023-10-14 [Sat] 03:47:36 8209: [KingstToCfg] line=55  offsetAddr=0x094F	dataStr=
2023-10-14 [Sat] 03:47:36 8429: REG=0x52,0x0950,0x40
2023-10-14 [Sat] 03:47:36 8529: [KingstToCfg] line=58  offsetAddr=0x0951	dataStr=
2023-10-14 [Sat] 03:47:36 8719: REG=0x52,0x0951,0x01
2023-10-14 [Sat] 03:47:36 8839: [KingstToCfg] line=61  offsetAddr=0x0952	dataStr=
2023-10-14 [Sat] 03:47:36 9059: REG=0x52,0x0952,0x41
2023-10-14 [Sat] 03:47:36 9169: [KingstToCfg] line=62  offsetAddr=0x0953	dataStr=
2023-10-14 [Sat] 03:47:36 9359: REG=0x52,0x0952,0xA9
2023-10-14 [Sat] 03:47:36 9469: [KingstToCfg] line=63  offsetAddr=0x0953	dataStr=0xFF
2023-10-14 [Sat] 03:47:36 9619: REG=0x52,0x0953,0xFF
2023-10-14 [Sat] 03:47:36 9799: [KingstToCfg] line=64  offsetAddr=0x0954	dataStr=
2023-10-14 [Sat] 03:47:36 9959: REG=0x52,0x098B,0x07
2023-10-14 [Sat] 03:47:37 0119: [KingstToCfg] line=64  offsetAddr=0x098C	dataStr=
2023-10-14 [Sat] 03:47:37 0299: REG=0x52,0x09AD,0x15
2023-10-14 [Sat] 03:47:37 0449: [KingstToCfg] line=65  offsetAddr=0x09AE	dataStr=
2023-10-14 [Sat] 03:47:37 0619: REG=0x52,0x098D,0x2D
2023-10-14 [Sat] 03:47:37 0799: [KingstToCfg] line=66  offsetAddr=0x098E	dataStr=
2023-10-14 [Sat] 03:47:37 0999: REG=0x52,0x098E,0xAD
2023-10-14 [Sat] 03:47:37 1139: [KingstToCfg] line=67  offsetAddr=0x098F	dataStr=
2023-10-14 [Sat] 03:47:37 1389: REG=0x52,0x098F,0x00
2023-10-14 [Sat] 03:47:37 1460: [KingstToCfg] line=70  offsetAddr=0x0990	dataStr=
2023-10-14 [Sat] 03:47:37 1610: REG=0x52,0x0990,0x80
2023-10-14 [Sat] 03:47:37 1770: [KingstToCfg] line=71  offsetAddr=0x0991	dataStr=
2023-10-14 [Sat] 03:47:37 2030: REG=0x52,0x0991,0x01
2023-10-14 [Sat] 03:47:37 2652: [KingstToCfg] line=74  offsetAddr=0x0992	dataStr=
2023-10-14 [Sat] 03:47:37 2722: REG=0x52,0x0992,0x81
2023-10-14 [Sat] 03:47:37 2882: [KingstToCfg] line=75  offsetAddr=0x0993	dataStr=
2023-10-14 [Sat] 03:47:37 3122: REG=0x52,0x09CB,0x07
2023-10-14 [Sat] 03:47:37 3222: [KingstToCfg] line=78  offsetAddr=0x09CC	dataStr=
2023-10-14 [Sat] 03:47:37 3412: REG=0x52,0x09ED,0x15
2023-10-14 [Sat] 03:47:37 3532: [KingstToCfg] line=79  offsetAddr=0x09EE	dataStr=
2023-10-14 [Sat] 03:47:37 3712: REG=0x52,0x09CD,0x2D
2023-10-14 [Sat] 03:47:37 3832: [KingstToCfg] line=80  offsetAddr=0x09CE	dataStr=
2023-10-14 [Sat] 03:47:37 4022: REG=0x52,0x09CE,0xED
2023-10-14 [Sat] 03:47:37 4162: [KingstToCfg] line=81  offsetAddr=0x09CF	dataStr=
2023-10-14 [Sat] 03:47:37 4382: REG=0x52,0x09CF,0x00
2023-10-14 [Sat] 03:47:37 4462: [KingstToCfg] line=84  offsetAddr=0x09D0	dataStr=
2023-10-14 [Sat] 03:47:37 4612: REG=0x52,0x09D0,0xC0
2023-10-14 [Sat] 03:47:37 4902: [KingstToCfg] line=85  offsetAddr=0x09D1	dataStr=
2023-10-14 [Sat] 03:47:37 5132: REG=0x52,0x09D1,0x01
2023-10-14 [Sat] 03:47:37 5242: [KingstToCfg] line=88  offsetAddr=0x09D2	dataStr=
2023-10-14 [Sat] 03:47:37 5412: REG=0x52,0x09D2,0xC1
2023-10-14 [Sat] 03:47:37 5552: [KingstToCfg] line=89  offsetAddr=0x09D3	dataStr=
2023-10-14 [Sat] 03:47:37 5792: REG=0x52,0x08A0,0x04
2023-10-14 [Sat] 03:47:37 5892: [KingstToCfg] line=92  offsetAddr=0x08A1	dataStr=
2023-10-14 [Sat] 03:47:37 6052: REG=0x52,0x08A3,0xE4
2023-10-14 [Sat] 03:47:37 6182: [KingstToCfg] line=93  offsetAddr=0x08A4	dataStr=
2023-10-14 [Sat] 03:47:37 6362: REG=0x52,0x08A4,0xE4
2023-10-14 [Sat] 03:47:37 6492: [KingstToCfg] line=94  offsetAddr=0x08A5	dataStr=
2023-10-14 [Sat] 03:47:37 6682: REG=0x52,0x090A,0xC0
2023-10-14 [Sat] 03:47:37 6802: [KingstToCfg] line=95  offsetAddr=0x090B	dataStr=
2023-10-14 [Sat] 03:47:37 6992: REG=0x52,0x094A,0xC0
2023-10-14 [Sat] 03:47:37 7152: [KingstToCfg] line=96  offsetAddr=0x094B	dataStr=
2023-10-14 [Sat] 03:47:37 7332: REG=0x52,0x098A,0xC0
2023-10-14 [Sat] 03:47:37 7462: [KingstToCfg] line=97  offsetAddr=0x098B	dataStr=
2023-10-14 [Sat] 03:47:37 7622: REG=0x52,0x09E5,0xE0
2023-10-14 [Sat] 03:47:37 7752: [KingstToCfg] line=98  offsetAddr=0x09E6	dataStr=
2023-10-14 [Sat] 03:47:37 8002: REG=0x52,0x08A2,0xF6
2023-10-14 [Sat] 03:47:37 8122: [KingstToCfg] line=99  offsetAddr=0x08A3	dataStr=
2023-10-14 [Sat] 03:47:37 8352: REG=0x52,0x1D00,0xF4
2023-10-14 [Sat] 03:47:37 8471: [KingstToCfg] line=101  offsetAddr=0x1D01	dataStr=
2023-10-14 [Sat] 03:47:37 8661: REG=0x52,0x0F80,0xFA
2023-10-14 [Sat] 03:47:37 8771: [KingstToCfg] line=102  offsetAddr=0x0F81	dataStr=
2023-10-14 [Sat] 03:47:37 8951: REG=0x52,0x1F00,0xF4
2023-10-14 [Sat] 03:47:37 9101: [KingstToCfg] line=103  offsetAddr=0x1F01	dataStr=
2023-10-14 [Sat] 03:47:37 9271: REG=0x52,0x0415,0x3C
2023-10-14 [Sat] 03:47:37 9421: [KingstToCfg] line=104  offsetAddr=0x0416	dataStr=
2023-10-14 [Sat] 03:47:37 9581: REG=0x52,0x0418,0x38
2023-10-14 [Sat] 03:47:37 9741: [KingstToCfg] line=105  offsetAddr=0x0419	dataStr=
2023-10-14 [Sat] 03:47:37 9911: REG=0x52,0x041B,0x9C
2023-10-14 [Sat] 03:47:38 0021: [KingstToCfg] line=106  offsetAddr=0x041C	dataStr=
2023-10-14 [Sat] 03:47:38 0201: REG=0x52,0x041F,0x9C
2023-10-14 [Sat] 03:47:38 0341: [KingstToCfg] line=107  offsetAddr=0x0420	dataStr=
2023-10-14 [Sat] 03:47:38 0491: REG=0x52,0x1C00,0xF5
2023-10-14 [Sat] 03:47:38 0651: [KingstToCfg] line=108  offsetAddr=0x1C01	dataStr=
2023-10-14 [Sat] 03:47:38 0811: REG=0x52,0x1D00,0xF5
2023-10-14 [Sat] 03:47:38 0941: [KingstToCfg] line=109  offsetAddr=0x1D01	dataStr=
2023-10-14 [Sat] 03:47:38 1141: REG=0x52,0x1E00,0xF5
2023-10-14 [Sat] 03:47:38 1281: [KingstToCfg] line=110  offsetAddr=0x1E01	dataStr=
2023-10-14 [Sat] 03:47:38 1458: REG=0x52,0x1F00,0xF5
2023-10-14 [Sat] 03:47:38 1569: [KingstToCfg] line=111  offsetAddr=0x1F01	dataStr=
2023-10-14 [Sat] 03:47:38 1799: REG=0x52,0x0001,0xCC
2023-10-14 [Sat] 03:47:38 1889: [KingstToCfg] line=114  offsetAddr=0x0002	dataStr=
2023-10-14 [Sat] 03:47:38 2079: REG=0x52,0x0049,0x3F
2023-10-14 [Sat] 03:47:38 2209: [KingstToCfg] line=115  offsetAddr=0x004A	dataStr=
2023-10-14 [Sat] 03:47:38 2419: REG=0x52,0x0003,0xFF
2023-10-14 [Sat] 03:47:38 2549: [KingstToCfg] line=118  offsetAddr=0x0004	dataStr=
2023-10-14 [Sat] 03:47:38 2849: REG=0x84,0x0000,0xC6
2023-10-14 [Sat] 03:47:38 2919: [KingstToCfg] line=122  offsetAddr=0x0001	dataStr=
2023-10-14 [Sat] 03:47:38 3099: REG=0xC6,0x0042,0x26
2023-10-14 [Sat] 03:47:38 3219: [KingstToCfg] line=123  offsetAddr=0x0043	dataStr=
2023-10-14 [Sat] 03:47:38 3379: REG=0xC6,0x0043,0x6C
2023-10-14 [Sat] 03:47:38 3519: [KingstToCfg] line=124  offsetAddr=0x0044	dataStr=
2023-10-14 [Sat] 03:47:38 3689: REG=0xC6,0x0044,0x00
2023-10-14 [Sat] 03:47:38 3859: [KingstToCfg] line=125  offsetAddr=0x0045	dataStr=
2023-10-14 [Sat] 03:47:38 4039: REG=0xC6,0x0045,0x00
2023-10-14 [Sat] 03:47:38 4199: [KingstToCfg] line=126  offsetAddr=0x0046	dataStr=
2023-10-14 [Sat] 03:47:38 4359: REG=0x52,0x0003,0xAA
2023-10-14 [Sat] 03:47:38 4519: [KingstToCfg] line=127  offsetAddr=0x0004	dataStr=
2023-10-14 [Sat] 03:47:38 4699: REG=0x52,0x0006,0xFF
2023-10-14 [Sat] 03:47:38 4819: [KingstToCfg] line=128  offsetAddr=0x0007	dataStr=
2023-10-14 [Sat] 03:47:38 5079: REG=0x52,0x032C,0x80
2023-10-14 [Sat] 03:47:38 5149: [KingstToCfg] line=131  offsetAddr=0x032D	dataStr=
2023-10-14 [Sat] 03:47:38 5379: REG=0x52,0x03D2,0x2E
2023-10-14 [Sat] 03:47:38 5519: [KingstToCfg] line=132  offsetAddr=0x03D3	dataStr=
2023-10-14 [Sat] 03:47:38 5709: REG=0x52,0x0316,0x80
2023-10-14 [Sat] 03:47:38 5859: [KingstToCfg] line=133  offsetAddr=0x0317	dataStr=
2023-10-14 [Sat] 03:47:38 6059: REG=0x52,0x03BB,0x27
2023-10-14 [Sat] 03:47:38 6179: [KingstToCfg] line=134  offsetAddr=0x03BC	dataStr=
2023-10-14 [Sat] 03:47:38 6389: REG=0x52,0x08A9,0xC8
2023-10-14 [Sat] 03:47:38 6529: [KingstToCfg] line=135  offsetAddr=0x08AA	dataStr=
2023-10-14 [Sat] 03:47:38 6729: REG=0x52,0x0903,0x81
2023-10-14 [Sat] 03:47:38 6879: [KingstToCfg] line=136  offsetAddr=0x0904	dataStr=
2023-10-14 [Sat] 03:47:38 7069: REG=0x52,0x0943,0x81
2023-10-14 [Sat] 03:47:38 7189: [KingstToCfg] line=137  offsetAddr=0x0944	dataStr=
2023-10-14 [Sat] 03:47:38 7349: REG=0x52,0x0983,0x81
2023-10-14 [Sat] 03:47:38 7479: [KingstToCfg] line=138  offsetAddr=0x0984	dataStr=
2023-10-14 [Sat] 03:47:38 7679: REG=0x52,0x09C3,0x81
2023-10-14 [Sat] 03:47:38 7819: [KingstToCfg] line=139  offsetAddr=0x09C4	dataStr=
2023-10-14 [Sat] 03:47:38 8199: REG=0xC6,0x0002,0x43
2023-10-14 [Sat] 03:47:38 8219: [KingstToCfg] line=149  offsetAddr=0x0003	dataStr=
2023-10-14 [Sat] 03:47:38 8429: REG=0xC6,0x0330,0x00
2023-10-14 [Sat] 03:47:38 8539: [KingstToCfg] line=150  offsetAddr=0x0331	dataStr=
2023-10-14 [Sat] 03:47:38 8689: REG=0xC6,0x0331,0x33
2023-10-14 [Sat] 03:47:38 8839: [KingstToCfg] line=151  offsetAddr=0x0332	dataStr=
2023-10-14 [Sat] 03:47:38 9029: REG=0xC6,0x0332,0xEE
2023-10-14 [Sat] 03:47:38 9159: [KingstToCfg] line=152  offsetAddr=0x0333	dataStr=
2023-10-14 [Sat] 03:47:38 9369: REG=0xC6,0x0333,0xE4
